time/s	           cycle number	freq/Hz	           Re(Z)/Ohm	  -Im(Z)/Ohm	   |Z|/Ohm	   Phase(Z)/deg
15529.49325	   1.00000	20004.45300	   0.37181	  -0.02083	   0.37239	   3.20678
15529.63625	   1.00000	15829.12600	   0.37908	  -0.00412	   0.37911	   0.62287
15529.77825	   1.00000	12516.70300	   0.38590	   0.00953	   0.38602	  -1.41476
15529.92025	   1.00000	9909.44240	   0.39350	   0.02146	   0.39408	  -3.12178
15530.08425	   1.00000	7835.48000	   0.40243	   0.03079	   0.40360	  -4.37482
15530.28525	   1.00000	6217.24610	   0.40874	   0.03871	   0.41057	  -5.40985
15530.52325	   1.00000	4905.29100	   0.41886	   0.04596	   0.42138	  -6.26182
15530.76225	   1.00000	3881.27370	   0.42727	   0.05407	   0.43067	  -7.21211
15531.00025	   1.00000	3070.98270	   0.43715	   0.06064	   0.44134	  -7.89701
15531.23825	   1.00000	2430.77780	   0.44796	   0.06816	   0.45312	  -8.65186
15531.47625	   1.00000	1923.15370	   0.45798	   0.07251	   0.46368	  -8.99707
15531.71425	   1.00000	1522.43580	   0.46971	   0.07983	   0.47645	  -9.64618
15531.95225	   1.00000	1203.84460	   0.48048	   0.08522	   0.48798	 -10.05730
15532.19125	   1.00000	 952.86591	   0.49451	   0.09008	   0.50265	 -10.32384
15532.42925	   1.00000	 754.27557	   0.50802	   0.09916	   0.51761	 -11.04420
15532.66625	   1.00000	 596.71857	   0.52341	   0.10428	   0.53370	 -11.26725
15532.90425	   1.00000	 471.96338	   0.53857	   0.10957	   0.54961	 -11.49946
15533.14325	   1.00000	 373.20856	   0.55533	   0.11548	   0.56721	 -11.74681
15533.38025	   1.00000	 295.47278	   0.57362	   0.12265	   0.58659	 -12.06956
15533.62025	   1.00000	 233.87738	   0.59197	   0.12773	   0.60560	 -12.17582
15533.85825	   1.00000	 185.05922	   0.61062	   0.13389	   0.62513	 -12.36756
15534.09425	   1.00000	 146.35823	   0.63213	   0.14031	   0.64751	 -12.51452
15534.33025	   1.00000	 115.77804	   0.65274	   0.14684	   0.66905	 -12.67821
15534.56525	   1.00000	  91.67210	   0.67433	   0.15269	   0.69140	 -12.75819
15534.81025	   1.00000	  72.51701	   0.69607	   0.15866	   0.71392	 -12.84043
15535.03925	   1.00000	  57.36816	   0.72049	   0.16649	   0.73948	 -13.01154
15535.27625	   1.00000	  45.36290	   0.74247	   0.17311	   0.76238	 -13.12434
15535.50825	   1.00000	  35.93134	   0.76578	   0.18321	   0.78739	 -13.45492
15535.75825	   1.00000	  28.40909	   0.79157	   0.19457	   0.81513	 -13.80990
15535.97325	   1.00000	  22.48202	   0.81994	   0.21028	   0.84648	 -14.38368
15536.23825	   1.00000	  17.79613	   0.85321	   0.22403	   0.88213	 -14.71203
15536.49025	   1.00000	  14.06813	   0.89234	   0.23925	   0.92386	 -15.00887
15536.70625	   1.00000	  11.14480	   0.93626	   0.24925	   0.96887	 -14.90758
15536.97325	   1.00000	   8.81772	   0.98331	   0.25764	   1.01651	 -14.68202
15537.15225	   1.00000	   6.97545	   1.03886	   0.25768	   1.07034	 -13.93038
15537.37025	   1.00000	   5.51730	   1.08438	   0.24762	   1.11229	 -12.86319
15537.63925	   1.00000	   4.36941	   1.13455	   0.23788	   1.15922	 -11.84182
15537.97425	   1.00000	   3.45686	   1.17283	   0.21995	   1.19328	 -10.62184
15538.39325	   1.00000	   2.73547	   1.21063	   0.19638	   1.22646	  -9.21365
15538.91825	   1.00000	   2.16054	   1.24083	   0.17481	   1.25308	  -8.01899
15539.57725	   1.00000	   1.70952	   1.26130	   0.15432	   1.27071	  -6.97523
15540.40625	   1.00000	   1.35352	   1.27889	   0.13486	   1.28598	  -6.01973
15541.44925	   1.00000	   1.07079	   1.29327	   0.11829	   1.29867	  -5.22622
15542.76325	   1.00000	   0.84734	   1.30403	   0.10570	   1.30830	  -4.63426
15544.41825	   1.00000	   0.67072	   1.31290	   0.09636	   1.31644	  -4.19781
15546.50725	   1.00000	   0.53067	   1.31951	   0.08854	   1.32248	  -3.83902
15549.14425	   1.00000	   0.41976	   1.32636	   0.08410	   1.32903	  -3.62814
15552.47525	   1.00000	   0.33183	   1.33367	   0.08376	   1.33630	  -3.59384
15556.68025	   1.00000	   0.26261	   1.34058	   0.08584	   1.34333	  -3.66388
15561.98825	   1.00000	   0.20791	   1.34687	   0.09142	   1.34997	  -3.88304
15568.69325	   1.00000	   0.16452	   1.35323	   0.09777	   1.35675	  -4.13242
15577.16925	   1.00000	   0.13007	   1.36251	   0.10696	   1.36670	  -4.48876
15587.85925	   1.00000	   0.10309	   1.37515	   0.12031	   1.38040	  -5.00014
15601.37326	   1.00000	   0.08153	   1.38777	   0.14054	   1.39486	  -5.78281
15618.47126	   1.00000	   0.06443	   1.40125	   0.16543	   1.41098	  -6.73316
15640.05826	   1.00000	   0.05102	   1.41539	   0.18818	   1.42784	  -7.57334
15667.30026	   1.00000	   0.04042	   1.44119	   0.21387	   1.45698	  -8.44103
15701.79626	   1.00000	   0.03192	   1.47454	   0.25147	   1.49582	  -9.67813
15745.34426	   1.00000	   0.02528	   1.50950	   0.29559	   1.53817	 -11.07949
15800.40926	   1.00000	   0.01999	   1.54473	   0.33756	   1.58118	 -12.32657
31444.73617	   2.00000	20004.45300	   0.38432	  -0.01975	   0.38483	   2.94210
31444.87917	   2.00000	15829.12600	   0.39133	  -0.00291	   0.39134	   0.42629
31445.02117	   2.00000	12516.70300	   0.39688	   0.00974	   0.39700	  -1.40604
31445.16317	   2.00000	9909.44240	   0.40641	   0.02171	   0.40699	  -3.05796
31445.32717	   2.00000	7835.48000	   0.41338	   0.03009	   0.41447	  -4.16293
31445.52817	   2.00000	6217.24610	   0.42111	   0.03918	   0.42293	  -5.31594
31445.76617	   2.00000	4905.29100	   0.43141	   0.04816	   0.43409	  -6.36954
31446.00517	   2.00000	3881.27370	   0.43902	   0.05487	   0.44244	  -7.12391
31446.24317	   2.00000	3070.98270	   0.44894	   0.06088	   0.45305	  -7.72253
31446.48117	   2.00000	2430.77780	   0.46032	   0.06800	   0.46531	  -8.40265
31446.71917	   2.00000	1923.15370	   0.46996	   0.07428	   0.47579	  -8.98156
31446.95717	   2.00000	1522.43580	   0.48197	   0.08044	   0.48864	  -9.47504
31447.19517	   2.00000	1203.84460	   0.49445	   0.08548	   0.50178	  -9.80792
31447.43417	   2.00000	 952.86591	   0.50829	   0.09218	   0.51658	 -10.27862
31447.67217	   2.00000	 754.27557	   0.52304	   0.09836	   0.53221	 -10.65034
31447.90917	   2.00000	 596.71857	   0.53769	   0.10465	   0.54778	 -11.01386
31448.14717	   2.00000	 471.96338	   0.55458	   0.11078	   0.56554	 -11.29678
31448.38617	   2.00000	 373.20856	   0.57125	   0.11778	   0.58326	 -11.64994
31448.62417	   2.00000	 295.47278	   0.58844	   0.12294	   0.60114	 -11.80098
31448.86317	   2.00000	 233.87738	   0.60765	   0.13016	   0.62144	 -12.09011
31449.10117	   2.00000	 185.05922	   0.62765	   0.13452	   0.64190	 -12.09730
31449.33717	   2.00000	 146.35823	   0.64796	   0.14257	   0.66346	 -12.40901
31449.57417	   2.00000	 115.77804	   0.66868	   0.14787	   0.68483	 -12.46982
31449.80817	   2.00000	  91.67210	   0.69234	   0.15403	   0.70926	 -12.54279
31450.05317	   2.00000	  72.51701	   0.71383	   0.16051	   0.73165	 -12.67273
31450.28217	   2.00000	  57.36816	   0.73613	   0.16659	   0.75475	 -12.75146
31450.51917	   2.00000	  45.36290	   0.75986	   0.17505	   0.77977	 -12.97275
31450.75117	   2.00000	  35.93134	   0.78387	   0.18540	   0.80550	 -13.30681
31451.00217	   2.00000	  28.40909	   0.80967	   0.19572	   0.83299	 -13.58900
31451.21617	   2.00000	  22.48202	   0.84068	   0.20936	   0.86635	 -13.98423
31451.48117	   2.00000	  17.79613	   0.87379	   0.22504	   0.90230	 -14.44267
31451.73317	   2.00000	  14.06813	   0.91368	   0.23893	   0.94440	 -14.65507
31451.94917	   2.00000	  11.14480	   0.95770	   0.24912	   0.98957	 -14.58109
31452.21717	   2.00000	   8.81772	   1.00643	   0.25398	   1.03798	 -14.16342
31452.39517	   2.00000	   6.97545	   1.05451	   0.25678	   1.08532	 -13.68577
31452.61317	   2.00000	   5.51730	   1.10607	   0.24337	   1.13253	 -12.40894
31452.88217	   2.00000	   4.36941	   1.14792	   0.23299	   1.17133	 -11.47321
31453.21717	   2.00000	   3.45686	   1.18786	   0.21080	   1.20642	 -10.06307
31453.63617	   2.00000	   2.73547	   1.22346	   0.19049	   1.23820	  -8.84962
31454.16117	   2.00000	   2.16054	   1.25033	   0.16951	   1.26177	  -7.72048
31454.82017	   2.00000	   1.70952	   1.27035	   0.14806	   1.27895	  -6.64797
31455.64917	   2.00000	   1.35352	   1.28752	   0.12935	   1.29400	  -5.73697
31456.69217	   2.00000	   1.07079	   1.30039	   0.11365	   1.30535	  -4.99486
31458.00617	   2.00000	   0.84734	   1.31031	   0.10216	   1.31428	  -4.45805
31459.66117	   2.00000	   0.67072	   1.31865	   0.09327	   1.32194	  -4.04567
31461.75017	   2.00000	   0.53067	   1.32563	   0.08619	   1.32843	  -3.71990
31464.38717	   2.00000	   0.41976	   1.33282	   0.08280	   1.33539	  -3.55495
31467.71817	   2.00000	   0.33183	   1.33925	   0.08292	   1.34181	  -3.54313
31471.92417	   2.00000	   0.26261	   1.34488	   0.08610	   1.34764	  -3.66330
31477.23217	   2.00000	   0.20791	   1.35051	   0.09016	   1.35352	  -3.81954
31483.93717	   2.00000	   0.16452	   1.35827	   0.09634	   1.36168	  -4.05700
31492.41317	   2.00000	   0.13007	   1.36889	   0.10798	   1.37314	  -4.51027
31503.10317	   2.00000	   0.10309	   1.37830	   0.12436	   1.38390	  -5.15570
31516.61717	   2.00000	   0.08153	   1.38803	   0.14264	   1.39534	  -5.86717
31533.71517	   2.00000	   0.06443	   1.40225	   0.16446	   1.41186	  -6.68931
31555.30217	   2.00000	   0.05102	   1.42454	   0.18750	   1.43683	  -7.49842
31582.54417	   2.00000	   0.04042	   1.45257	   0.22218	   1.46946	  -8.69651
31617.04018	   2.00000	   0.03192	   1.48030	   0.26431	   1.50371	 -10.12345
31660.58818	   2.00000	   0.02528	   1.50920	   0.30222	   1.53917	 -11.32396
31715.65318	   2.00000	   0.01999	   1.55052	   0.33651	   1.58662	 -12.24515
47153.50463	   3.00000	20004.45300	   0.39323	  -0.01993	   0.39373	   2.90172
47153.64763	   3.00000	15829.12600	   0.39793	  -0.00285	   0.39794	   0.41034
47153.78963	   3.00000	12516.70300	   0.40636	   0.01115	   0.40652	  -1.57182
47153.93163	   3.00000	9909.44240	   0.41473	   0.02143	   0.41528	  -2.95816
47154.09563	   3.00000	7835.48000	   0.42207	   0.03099	   0.42321	  -4.19990
47154.29663	   3.00000	6217.24610	   0.43113	   0.03930	   0.43292	  -5.20904
47154.53463	   3.00000	4905.29100	   0.43881	   0.04698	   0.44132	  -6.11037
47154.77363	   3.00000	3881.27370	   0.44762	   0.05540	   0.45104	  -7.05527
47155.01163	   3.00000	3070.98270	   0.45893	   0.06060	   0.46292	  -7.52229
47155.24963	   3.00000	2430.77780	   0.46779	   0.06941	   0.47291	  -8.43964
47155.48763	   3.00000	1923.15370	   0.48028	   0.07492	   0.48609	  -8.86583
47155.72563	   3.00000	1522.43580	   0.49200	   0.08124	   0.49866	  -9.37605
47155.96363	   3.00000	1203.84460	   0.50438	   0.08737	   0.51189	  -9.82708
47156.20263	   3.00000	 952.86591	   0.51857	   0.09354	   0.52693	 -10.22478
47156.44063	   3.00000	 754.27557	   0.53276	   0.09992	   0.54205	 -10.62291
47156.67763	   3.00000	 596.71857	   0.54762	   0.10606	   0.55779	 -10.96080
47156.91563	   3.00000	 471.96338	   0.56350	   0.11179	   0.57448	 -11.22052
47157.15463	   3.00000	 373.20856	   0.58120	   0.11818	   0.59309	 -11.49407
47157.39263	   3.00000	 295.47278	   0.59924	   0.12498	   0.61214	 -11.78078
47157.63163	   3.00000	 233.87738	   0.61895	   0.13010	   0.63247	 -11.87005
47157.86963	   3.00000	 185.05922	   0.63634	   0.13722	   0.65097	 -12.16848
47158.10563	   3.00000	 146.35823	   0.65881	   0.14286	   0.67412	 -12.23457
47158.34163	   3.00000	 115.77804	   0.68011	   0.14733	   0.69589	 -12.22309
47158.57663	   3.00000	  91.67210	   0.70261	   0.15514	   0.71954	 -12.45127
47158.82163	   3.00000	  72.51701	   0.72489	   0.16175	   0.74271	 -12.57852
47159.05063	   3.00000	  57.36816	   0.74727	   0.16793	   0.76591	 -12.66538
47159.28763	   3.00000	  45.36290	   0.77020	   0.17558	   0.78996	 -12.84250
47159.51963	   3.00000	  35.93134	   0.79418	   0.18575	   0.81561	 -13.16458
47159.77063	   3.00000	  28.40909	   0.82156	   0.19920	   0.84536	 -13.62940
47159.98463	   3.00000	  22.48202	   0.85123	   0.21203	   0.87724	 -13.98702
47160.24963	   3.00000	  17.79613	   0.88563	   0.22639	   0.91411	 -14.33929
47160.50163	   3.00000	  14.06813	   0.92659	   0.24052	   0.95729	 -14.55178
47160.71763	   3.00000	  11.14480	   0.96972	   0.24895	   1.00117	 -14.39833
47160.98563	   3.00000	   8.81772	   1.01755	   0.25368	   1.04869	 -13.99888
47161.16363	   3.00000	   6.97545	   1.07068	   0.24989	   1.09946	 -13.13723
47161.38163	   3.00000	   5.51730	   1.11255	   0.24050	   1.13825	 -12.19817
47161.65063	   3.00000	   4.36941	   1.16091	   0.22718	   1.18293	 -11.07246
47161.98563	   3.00000	   3.45686	   1.19714	   0.20900	   1.21525	  -9.90294
47162.40463	   3.00000	   2.73547	   1.23051	   0.18547	   1.24441	  -8.57155
47162.92963	   3.00000	   2.16054	   1.25818	   0.16465	   1.26890	  -7.45551
47163.58863	   3.00000	   1.70952	   1.27768	   0.14524	   1.28591	  -6.48525
47164.41763	   3.00000	   1.35352	   1.29313	   0.12749	   1.29939	  -5.63041
47165.46063	   3.00000	   1.07079	   1.30512	   0.11195	   1.30991	  -4.90252
47166.77463	   3.00000	   0.84734	   1.31562	   0.10001	   1.31941	  -4.34726
47168.42963	   3.00000	   0.67072	   1.32379	   0.09097	   1.32691	  -3.93125
47170.51863	   3.00000	   0.53067	   1.33012	   0.08490	   1.33283	  -3.65234
47173.15563	   3.00000	   0.41976	   1.33613	   0.08133	   1.33861	  -3.48322
47176.48663	   3.00000	   0.33183	   1.34312	   0.08080	   1.34554	  -3.44252
47180.69263	   3.00000	   0.26261	   1.35058	   0.08443	   1.35322	  -3.57728
47186.00063	   3.00000	   0.20791	   1.35711	   0.09135	   1.36018	  -3.85074
47192.70563	   3.00000	   0.16452	   1.36253	   0.10070	   1.36625	  -4.22670
47201.18164	   3.00000	   0.13007	   1.36952	   0.11102	   1.37401	  -4.63462
47211.87164	   3.00000	   0.10309	   1.38021	   0.12394	   1.38576	  -5.13125
47225.38564	   3.00000	   0.08153	   1.39499	   0.14310	   1.40231	  -5.85715
47242.48364	   3.00000	   0.06443	   1.41043	   0.16829	   1.42044	  -6.80406
47264.06964	   3.00000	   0.05102	   1.42531	   0.19437	   1.43851	  -7.76542
47291.31264	   3.00000	   0.04042	   1.45095	   0.22121	   1.46772	  -8.66846
47325.80864	   3.00000	   0.03192	   1.48874	   0.25859	   1.51103	  -9.85363
47369.35564	   3.00000	   0.02528	   1.52822	   0.30832	   1.55901	 -11.40643
47424.42165	   3.00000	   0.01999	   1.56490	   0.36304	   1.60646	 -13.06082
62711.43811	   4.00000	20004.45300	   0.39376	  -0.01942	   0.39424	   2.82400
62711.58111	   4.00000	15829.12600	   0.40220	  -0.00288	   0.40221	   0.41092
62711.72311	   4.00000	12516.70300	   0.40988	   0.01058	   0.41002	  -1.47792
62711.86511	   4.00000	9909.44240	   0.41615	   0.02073	   0.41666	  -2.85247
62712.02911	   4.00000	7835.48000	   0.42515	   0.03198	   0.42635	  -4.30203
62712.23011	   4.00000	6217.24610	   0.43335	   0.03877	   0.43508	  -5.11239
62712.46811	   4.00000	4905.29100	   0.44094	   0.04727	   0.44347	  -6.11827
62712.70711	   4.00000	3881.27370	   0.45112	   0.05605	   0.45459	  -7.08232
62712.94511	   4.00000	3070.98270	   0.46184	   0.06011	   0.46574	  -7.41522
62713.18311	   4.00000	2430.77780	   0.47113	   0.06907	   0.47617	  -8.34093
62713.42111	   4.00000	1923.15370	   0.48322	   0.07389	   0.48884	  -8.69352
62713.65911	   4.00000	1522.43580	   0.49382	   0.08137	   0.50048	  -9.35671
62713.89711	   4.00000	1203.84460	   0.50790	   0.08622	   0.51516	  -9.63417
62714.13611	   4.00000	 952.86591	   0.52060	   0.09341	   0.52891	 -10.17183
62714.37411	   4.00000	 754.27557	   0.53643	   0.10012	   0.54569	 -10.57175
62714.61111	   4.00000	 596.71857	   0.55154	   0.10555	   0.56155	 -10.83444
62714.84911	   4.00000	 471.96338	   0.56750	   0.11209	   0.57847	 -11.17336
62715.08811	   4.00000	 373.20856	   0.58472	   0.11767	   0.59644	 -11.37819
62715.32511	   4.00000	 295.47278	   0.60272	   0.12455	   0.61545	 -11.67528
62715.56511	   4.00000	 233.87738	   0.62153	   0.13065	   0.63512	 -11.87110
62715.80311	   4.00000	 185.05922	   0.64067	   0.13748	   0.65525	 -12.11149
62716.03911	   4.00000	 146.35823	   0.66200	   0.14214	   0.67709	 -12.11785
62716.27511	   4.00000	 115.77804	   0.68239	   0.14931	   0.69853	 -12.34233
62716.51011	   4.00000	  91.67210	   0.70158	   0.15576	   0.71866	 -12.51751
62716.75511	   4.00000	  72.51701	   0.72818	   0.16001	   0.74555	 -12.39299
62716.98411	   4.00000	  57.36816	   0.74954	   0.16800	   0.76814	 -12.63336
62717.22111	   4.00000	  45.36290	   0.77395	   0.17608	   0.79373	 -12.81673
62717.45311	   4.00000	  35.93134	   0.79845	   0.18764	   0.82021	 -13.22504
62717.70311	   4.00000	  28.40909	   0.82546	   0.19798	   0.84887	 -13.48741
62717.91811	   4.00000	  22.48202	   0.85621	   0.21119	   0.88187	 -13.85608
62718.18311	   4.00000	  17.79613	   0.88952	   0.22599	   0.91778	 -14.25461
62718.43511	   4.00000	  14.06813	   0.93023	   0.23779	   0.96014	 -14.33943
62718.65111	   4.00000	  11.14480	   0.97407	   0.24561	   1.00456	 -14.15204
62718.91911	   4.00000	   8.81772	   1.02140	   0.25071	   1.05172	 -13.79115
62719.09711	   4.00000	   6.97545	   1.07289	   0.24985	   1.10160	 -13.10914
62719.31511	   4.00000	   5.51730	   1.11791	   0.23566	   1.14248	 -11.90407
62719.58411	   4.00000	   4.36941	   1.16249	   0.22513	   1.18409	 -10.96041
62719.91911	   4.00000	   3.45686	   1.19828	   0.20368	   1.21547	  -9.64698
62720.33811	   4.00000	   2.73547	   1.23233	   0.18248	   1.24577	  -8.42304
62720.86311	   4.00000	   2.16054	   1.25840	   0.16194	   1.26878	  -7.33296
62721.52211	   4.00000	   1.70952	   1.27643	   0.14214	   1.28432	  -6.35398
62722.35111	   4.00000	   1.35352	   1.29212	   0.12381	   1.29804	  -5.47321
62723.39411	   4.00000	   1.07079	   1.30431	   0.10909	   1.30886	  -4.78110
62724.70811	   4.00000	   0.84734	   1.31385	   0.09833	   1.31752	  -4.28008
62726.36311	   4.00000	   0.67072	   1.32141	   0.08960	   1.32445	  -3.87922
62728.45211	   4.00000	   0.53067	   1.32765	   0.08342	   1.33026	  -3.59524
62731.08911	   4.00000	   0.41976	   1.33473	   0.08036	   1.33715	  -3.44534
62734.42011	   4.00000	   0.33183	   1.34157	   0.08060	   1.34399	  -3.43828
62738.62611	   4.00000	   0.26261	   1.34841	   0.08576	   1.35113	  -3.63938
62743.93411	   4.00000	   0.20791	   1.35315	   0.09232	   1.35630	  -3.90316
62750.63911	   4.00000	   0.16452	   1.35861	   0.10021	   1.36230	  -4.21824
62759.11511	   4.00000	   0.13007	   1.36741	   0.11020	   1.37185	  -4.60756
62769.80512	   4.00000	   0.10309	   1.37797	   0.12497	   1.38363	  -5.18198
62783.31912	   4.00000	   0.08153	   1.39045	   0.14514	   1.39801	  -5.95931
62800.41712	   4.00000	   0.06443	   1.40548	   0.16941	   1.41565	  -6.87312
62822.00412	   4.00000	   0.05102	   1.42413	   0.19233	   1.43706	  -7.69115
62849.24612	   4.00000	   0.04042	   1.45496	   0.22338	   1.47200	  -8.72847
62883.74212	   4.00000	   0.03192	   1.49061	   0.26827	   1.51456	 -10.20261
62927.29012	   4.00000	   0.02528	   1.52217	   0.32017	   1.55548	 -11.87819
62982.35513	   4.00000	   0.01999	   1.55300	   0.36852	   1.59612	 -13.34922
78140.63482	   5.00000	20004.45300	   0.39422	  -0.01941	   0.39470	   2.81916
78140.77782	   5.00000	15829.12600	   0.40217	  -0.00187	   0.40218	   0.26615
78140.91982	   5.00000	12516.70300	   0.40892	   0.01143	   0.40908	  -1.60073
78141.06182	   5.00000	9909.44240	   0.41740	   0.02396	   0.41809	  -3.28531
78141.22582	   5.00000	7835.48000	   0.42559	   0.03205	   0.42679	  -4.30607
78141.42682	   5.00000	6217.24610	   0.43367	   0.04101	   0.43560	  -5.40236
78141.66482	   5.00000	4905.29100	   0.44172	   0.04828	   0.44435	  -6.23754
78141.90382	   5.00000	3881.27370	   0.45112	   0.05597	   0.45458	  -7.07196
78142.14182	   5.00000	3070.98270	   0.46165	   0.06088	   0.46564	  -7.51313
78142.37982	   5.00000	2430.77780	   0.47210	   0.06854	   0.47705	  -8.25993
78142.61782	   5.00000	1923.15370	   0.48243	   0.07498	   0.48822	  -8.83454
78142.85582	   5.00000	1522.43580	   0.49521	   0.08051	   0.50171	  -9.23468
78143.09382	   5.00000	1203.84460	   0.50716	   0.08603	   0.51441	  -9.62691
78143.33282	   5.00000	 952.86591	   0.52186	   0.09383	   0.53023	 -10.19235
