time/s	           cycle number	freq/Hz	           Re(Z)/Ohm	  -Im(Z)/Ohm	   |Z|/Ohm	   Phase(Z)/deg
7520.78391	   1.00000	20004.45300	   0.40128	  -0.02956	   0.40237	   4.21264
7520.92691	   1.00000	15829.12600	   0.40688	  -0.01046	   0.40701	   1.47198
7521.06891	   1.00000	12516.70300	   0.41389	   0.00415	   0.41391	  -0.57420
7521.21091	   1.00000	9909.44240	   0.42152	   0.01708	   0.42187	  -2.31990
7521.37491	   1.00000	7835.48000	   0.42905	   0.02692	   0.42990	  -3.59049
7521.57591	   1.00000	6217.24610	   0.43713	   0.03822	   0.43879	  -4.99660
7521.81391	   1.00000	4905.29100	   0.44521	   0.04634	   0.44761	  -5.94272
7522.05291	   1.00000	3881.27370	   0.45474	   0.05517	   0.45808	  -6.91755
7522.29091	   1.00000	3070.98270	   0.46409	   0.06073	   0.46805	  -7.45536
7522.52891	   1.00000	2430.77780	   0.47501	   0.06985	   0.48012	  -8.36593
7522.76691	   1.00000	1923.15370	   0.48606	   0.07579	   0.49193	  -8.86274
7523.00491	   1.00000	1522.43580	   0.49649	   0.08363	   0.50348	  -9.56169
7523.24291	   1.00000	1203.84460	   0.51111	   0.09046	   0.51905	 -10.03673
7523.48191	   1.00000	 952.86591	   0.52632	   0.09743	   0.53526	 -10.48791
7523.71991	   1.00000	 754.27557	   0.53933	   0.10342	   0.54915	 -10.85550
7523.95691	   1.00000	 596.71857	   0.55746	   0.11195	   0.56859	 -11.35557
7524.19491	   1.00000	 471.96338	   0.57236	   0.11787	   0.58437	 -11.63632
7524.43391	   1.00000	 373.20856	   0.59134	   0.12500	   0.60440	 -11.93588
7524.67191	   1.00000	 295.47278	   0.60918	   0.13132	   0.62318	 -12.16538
7524.91091	   1.00000	 233.87738	   0.63093	   0.14076	   0.64644	 -12.57646
7525.14891	   1.00000	 185.05922	   0.65029	   0.14773	   0.66686	 -12.79908
7525.38491	   1.00000	 146.35823	   0.67590	   0.15387	   0.69319	 -12.82512
7525.62191	   1.00000	 115.77804	   0.69864	   0.16146	   0.71705	 -13.01265
7525.85591	   1.00000	  91.67210	   0.72353	   0.16821	   0.74282	 -13.08824
7526.10091	   1.00000	  72.51701	   0.74722	   0.17488	   0.76742	 -13.17249
7526.32991	   1.00000	  57.36816	   0.77304	   0.18217	   0.79422	 -13.26025
7526.56691	   1.00000	  45.36290	   0.79911	   0.18894	   0.82114	 -13.30263
7526.79891	   1.00000	  35.93134	   0.82734	   0.19820	   0.85075	 -13.47179
7527.04991	   1.00000	  28.40909	   0.85575	   0.20998	   0.88113	 -13.78641
7527.26391	   1.00000	  22.48202	   0.88723	   0.22236	   0.91467	 -14.06992
7527.52891	   1.00000	  17.79613	   0.92296	   0.23405	   0.95217	 -14.22969
7527.78091	   1.00000	  14.06813	   0.96422	   0.24726	   0.99542	 -14.38264
7527.99691	   1.00000	  11.14480	   1.01137	   0.25405	   1.04279	 -14.10065
7528.26491	   1.00000	   8.81772	   1.05973	   0.25677	   1.09039	 -13.62031
7528.44291	   1.00000	   6.97545	   1.10842	   0.25245	   1.13681	 -12.83046
7528.66091	   1.00000	   5.51730	   1.15873	   0.23951	   1.18322	 -11.67858
7528.92991	   1.00000	   4.36941	   1.19753	   0.22418	   1.21833	 -10.60320
7529.26491	   1.00000	   3.45686	   1.23630	   0.19931	   1.25227	  -9.15830
7529.68391	   1.00000	   2.73547	   1.26771	   0.17951	   1.28036	  -8.05972
7530.20891	   1.00000	   2.16054	   1.28978	   0.15829	   1.29946	  -6.99680
7530.86791	   1.00000	   1.70952	   1.30868	   0.13689	   1.31582	  -5.97135
7531.69691	   1.00000	   1.35352	   1.32340	   0.12009	   1.32884	  -5.18482
7532.73991	   1.00000	   1.07079	   1.33478	   0.10613	   1.33899	  -4.54624
7534.05391	   1.00000	   0.84734	   1.34312	   0.09495	   1.34647	  -4.04385
7535.70891	   1.00000	   0.67072	   1.35144	   0.08670	   1.35422	  -3.67075
7537.79791	   1.00000	   0.53067	   1.35827	   0.08056	   1.36066	  -3.39415
7540.43491	   1.00000	   0.41976	   1.36509	   0.07840	   1.36734	  -3.28710
7543.76591	   1.00000	   0.33183	   1.37083	   0.07908	   1.37311	  -3.30174
7547.97191	   1.00000	   0.26261	   1.37575	   0.08227	   1.37820	  -3.42237
7553.27991	   1.00000	   0.20791	   1.38160	   0.08636	   1.38429	  -3.57675
7559.98491	   1.00000	   0.16452	   1.38933	   0.09306	   1.39245	  -3.83193
7568.46091	   1.00000	   0.13007	   1.39846	   0.10400	   1.40232	  -4.25302
7579.15091	   1.00000	   0.10309	   1.40736	   0.11908	   1.41239	  -4.83635
7592.66491	   1.00000	   0.08153	   1.41726	   0.13643	   1.42381	  -5.49843
7609.76291	   1.00000	   0.06443	   1.43098	   0.15756	   1.43963	  -6.28315
7631.34991	   1.00000	   0.05102	   1.45383	   0.18056	   1.46500	  -7.07957
7658.59192	   1.00000	   0.04042	   1.47690	   0.21724	   1.49279	  -8.36788
7693.08792	   1.00000	   0.03192	   1.50222	   0.25818	   1.52425	  -9.75192
7736.63492	   1.00000	   0.02528	   1.52895	   0.29453	   1.55706	 -10.90350
7791.69992	   1.00000	   0.01999	   1.56999	   0.32651	   1.60358	 -11.74831
23670.69942	   2.00000	20004.45300	   0.40692	  -0.02814	   0.40790	   3.95623
23670.84242	   2.00000	15829.12600	   0.41281	  -0.01026	   0.41293	   1.42327
23670.98442	   2.00000	12516.70300	   0.41998	   0.00478	   0.42001	  -0.65269
23671.12642	   2.00000	9909.44240	   0.42671	   0.01844	   0.42711	  -2.47443
23671.29042	   2.00000	7835.48000	   0.43524	   0.02844	   0.43617	  -3.73847
23671.49142	   2.00000	6217.24610	   0.44266	   0.03851	   0.44434	  -4.97195
23671.72942	   2.00000	4905.29100	   0.45219	   0.04732	   0.45466	  -5.97365
23671.96842	   2.00000	3881.27370	   0.46063	   0.05388	   0.46377	  -6.67129
23672.20642	   2.00000	3070.98270	   0.47194	   0.06256	   0.47607	  -7.55091
23672.44442	   2.00000	2430.77780	   0.48221	   0.06773	   0.48695	  -7.99511
23672.68242	   2.00000	1923.15370	   0.49200	   0.07537	   0.49774	  -8.70900
23672.92042	   2.00000	1522.43580	   0.50515	   0.08367	   0.51204	  -9.40516
23673.15842	   2.00000	1203.84460	   0.51748	   0.09059	   0.52535	  -9.92948
23673.39742	   2.00000	 952.86591	   0.53317	   0.09615	   0.54177	 -10.22220
23673.63542	   2.00000	 754.27557	   0.54778	   0.10334	   0.55744	 -10.68314
23673.87242	   2.00000	 596.71857	   0.56205	   0.11063	   0.57283	 -11.13523
23674.11042	   2.00000	 471.96338	   0.57984	   0.11808	   0.59174	 -11.51028
23674.34942	   2.00000	 373.20856	   0.59844	   0.12534	   0.61143	 -11.82919
23674.58742	   2.00000	 295.47278	   0.61742	   0.13262	   0.63150	 -12.12307
23674.82642	   2.00000	 233.87738	   0.63810	   0.14003	   0.65328	 -12.37771
23675.06442	   2.00000	 185.05922	   0.65926	   0.14653	   0.67535	 -12.53157
23675.30042	   2.00000	 146.35823	   0.68029	   0.15431	   0.69758	 -12.78011
23675.53742	   2.00000	 115.77804	   0.70313	   0.16032	   0.72117	 -12.84441
23675.77142	   2.00000	  91.67210	   0.72933	   0.16938	   0.74874	 -13.07488
23676.01642	   2.00000	  72.51701	   0.75391	   0.17605	   0.77419	 -13.14377
23676.24542	   2.00000	  57.36816	   0.78069	   0.18167	   0.80155	 -13.10017
23676.48242	   2.00000	  45.36290	   0.80680	   0.18968	   0.82880	 -13.23013
23676.71442	   2.00000	  35.93134	   0.83330	   0.19906	   0.85675	 -13.43492
23676.96542	   2.00000	  28.40909	   0.86262	   0.20874	   0.88752	 -13.60319
23677.17942	   2.00000	  22.48202	   0.89417	   0.22308	   0.92157	 -14.00823
23677.44442	   2.00000	  17.79613	   0.93233	   0.23329	   0.96107	 -14.04855
23677.69642	   2.00000	  14.06813	   0.97395	   0.24329	   1.00388	 -14.02554
23677.91242	   2.00000	  11.14480	   1.01975	   0.25060	   1.05010	 -13.80676
23678.18042	   2.00000	   8.81772	   1.06717	   0.25079	   1.09624	 -13.22483
23678.35842	   2.00000	   6.97545	   1.11637	   0.24629	   1.14321	 -12.44101
23678.57642	   2.00000	   5.51730	   1.16170	   0.22746	   1.18376	 -11.07846
23678.84542	   2.00000	   4.36941	   1.20156	   0.21527	   1.22069	 -10.15714
23679.18042	   2.00000	   3.45686	   1.23622	   0.19084	   1.25086	  -8.77577
23679.59942	   2.00000	   2.73547	   1.26570	   0.17045	   1.27712	  -7.66970
23680.12442	   2.00000	   2.16054	   1.28783	   0.14972	   1.29651	  -6.63144
23680.78342	   2.00000	   1.70952	   1.30504	   0.12992	   1.31149	  -5.68537
23681.61242	   2.00000	   1.35352	   1.31723	   0.11370	   1.32213	  -4.93332
23682.65542	   2.00000	   1.07079	   1.32879	   0.10034	   1.33257	  -4.31852
23683.96942	   2.00000	   0.84734	   1.33706	   0.09027	   1.34011	  -3.86252
23685.62442	   2.00000	   0.67072	   1.34355	   0.08243	   1.34608	  -3.51099
23687.71342	   2.00000	   0.53067	   1.34946	   0.07710	   1.35166	  -3.27009
23690.35042	   2.00000	   0.41976	   1.35597	   0.07499	   1.35804	  -3.16548
23693.68142	   2.00000	   0.33183	   1.36165	   0.07564	   1.36375	  -3.17932
23697.88742	   2.00000	   0.26261	   1.36753	   0.07920	   1.36982	  -3.31452
23703.19542	   2.00000	   0.20791	   1.37296	   0.08331	   1.37548	  -3.47255
23709.90042	   2.00000	   0.16452	   1.38046	   0.08993	   1.38338	  -3.72734
23718.37642	   2.00000	   0.13007	   1.39000	   0.10039	   1.39362	  -4.13081
23729.06642	   2.00000	   0.10309	   1.39973	   0.11646	   1.40456	  -4.75612
23742.58043	   2.00000	   0.08153	   1.40888	   0.13465	   1.41530	  -5.45932
23759.67843	   2.00000	   0.06443	   1.42160	   0.15572	   1.43011	  -6.25132
23781.26543	   2.00000	   0.05102	   1.44183	   0.17721	   1.45268	  -7.00666
23808.50743	   2.00000	   0.04042	   1.46868	   0.20944	   1.48354	  -8.11580
23843.00343	   2.00000	   0.03192	   1.49521	   0.24951	   1.51589	  -9.47363
23886.55043	   2.00000	   0.02528	   1.52309	   0.28767	   1.55002	 -10.69572
23941.61544	   2.00000	   0.01999	   1.56281	   0.31961	   1.59516	 -11.55814
39575.32942	   3.00000	20004.45300	   0.40862	  -0.02819	   0.40959	   3.94696
39575.47242	   3.00000	15829.12600	   0.41396	  -0.00928	   0.41407	   1.28434
39575.61442	   3.00000	12516.70300	   0.42017	   0.00424	   0.42019	  -0.57832
39575.75642	   3.00000	9909.44240	   0.42828	   0.01845	   0.42868	  -2.46708
39575.92042	   3.00000	7835.48000	   0.43716	   0.02858	   0.43809	  -3.74086
39576.12142	   3.00000	6217.24610	   0.44580	   0.03966	   0.44756	  -5.08411
39576.35942	   3.00000	4905.29100	   0.45375	   0.04745	   0.45622	  -5.96996
39576.59842	   3.00000	3881.27370	   0.46086	   0.05547	   0.46419	  -6.86276
39576.83642	   3.00000	3070.98270	   0.47261	   0.06269	   0.47674	  -7.55581
39577.07442	   3.00000	2430.77780	   0.48373	   0.06960	   0.48871	  -8.18785
39577.31242	   3.00000	1923.15370	   0.49397	   0.07666	   0.49988	  -8.82185
39577.55042	   3.00000	1522.43580	   0.50662	   0.08278	   0.51334	  -9.28045
39577.78842	   3.00000	1203.84460	   0.52121	   0.09252	   0.52936	 -10.06629
39578.02742	   3.00000	 952.86591	   0.53465	   0.09699	   0.54338	 -10.28197
39578.26542	   3.00000	 754.27557	   0.55055	   0.10307	   0.56012	 -10.60384
39578.50242	   3.00000	 596.71857	   0.56526	   0.10944	   0.57576	 -10.95722
39578.74042	   3.00000	 471.96338	   0.58404	   0.11748	   0.59574	 -11.37288
39578.97942	   3.00000	 373.20856	   0.60185	   0.12563	   0.61482	 -11.79103
39579.21742	   3.00000	 295.47278	   0.62024	   0.13300	   0.63434	 -12.10268
39579.45642	   3.00000	 233.87738	   0.64016	   0.13963	   0.65521	 -12.30461
39579.69442	   3.00000	 185.05922	   0.66185	   0.14791	   0.67817	 -12.59717
39579.93042	   3.00000	 146.35823	   0.68460	   0.15486	   0.70189	 -12.74654
39580.16642	   3.00000	 115.77804	   0.70713	   0.16082	   0.72518	 -12.81301
39580.40142	   3.00000	  91.67210	   0.73183	   0.16690	   0.75062	 -12.84695
39580.64642	   3.00000	  72.51701	   0.75644	   0.17500	   0.77642	 -13.02580
39580.87542	   3.00000	  57.36816	   0.78383	   0.18106	   0.80447	 -13.00656
39581.11242	   3.00000	  45.36290	   0.80829	   0.18997	   0.83031	 -13.22590
39581.34442	   3.00000	  35.93134	   0.83615	   0.19897	   0.85950	 -13.38496
39581.59542	   3.00000	  28.40909	   0.86540	   0.20950	   0.89040	 -13.60862
39581.80942	   3.00000	  22.48202	   0.89906	   0.22151	   0.92594	 -13.84099
39582.07442	   3.00000	  17.79613	   0.93638	   0.23372	   0.96511	 -14.01443
39582.32642	   3.00000	  14.06813	   0.97686	   0.24315	   1.00667	 -13.97720
39582.54242	   3.00000	  11.14480	   1.02312	   0.24984	   1.05319	 -13.72256
39582.80942	   3.00000	   8.81772	   1.07109	   0.24922	   1.09970	 -13.09838
39582.98842	   3.00000	   6.97545	   1.12133	   0.23935	   1.14659	 -12.04892
39583.20642	   3.00000	   5.51730	   1.16127	   0.22867	   1.18357	 -11.13995
39583.47542	   3.00000	   4.36941	   1.20511	   0.20850	   1.22302	  -9.81596
39583.81042	   3.00000	   3.45686	   1.23700	   0.18920	   1.25139	  -8.69609
39584.22942	   3.00000	   2.73547	   1.26415	   0.16588	   1.27498	  -7.47558
39584.75442	   3.00000	   2.16054	   1.28767	   0.14546	   1.29586	  -6.44481
39585.41342	   3.00000	   1.70952	   1.30380	   0.12685	   1.30996	  -5.55695
39586.24242	   3.00000	   1.35352	   1.31544	   0.11131	   1.32014	  -4.83655
39587.28542	   3.00000	   1.07079	   1.32553	   0.09874	   1.32920	  -4.25999
39588.59942	   3.00000	   0.84734	   1.33355	   0.08749	   1.33642	  -3.75361
39590.25442	   3.00000	   0.67072	   1.34108	   0.08102	   1.34352	  -3.45725
39592.34342	   3.00000	   0.53067	   1.34727	   0.07695	   1.34947	  -3.26895
39594.98042	   3.00000	   0.41976	   1.35203	   0.07440	   1.35408	  -3.14954
39598.31142	   3.00000	   0.33183	   1.35819	   0.07386	   1.36020	  -3.11258
39602.51743	   3.00000	   0.26261	   1.36488	   0.07710	   1.36706	  -3.23310
39607.82543	   3.00000	   0.20791	   1.37153	   0.08360	   1.37408	  -3.48789
39614.53043	   3.00000	   0.16452	   1.37754	   0.09250	   1.38064	  -3.84167
39623.00643	   3.00000	   0.13007	   1.38422	   0.10259	   1.38802	  -4.23876
39633.69643	   3.00000	   0.10309	   1.39433	   0.11413	   1.39900	  -4.67945
39647.21043	   3.00000	   0.08153	   1.40847	   0.13146	   1.41459	  -5.33208
39664.30843	   3.00000	   0.06443	   1.42368	   0.15514	   1.43210	  -6.21913
39685.89443	   3.00000	   0.05102	   1.43774	   0.18231	   1.44925	  -7.22676
39713.13743	   3.00000	   0.04042	   1.45807	   0.20856	   1.47291	  -8.14020
39747.63243	   3.00000	   0.03192	   1.49137	   0.24028	   1.51060	  -9.15229
39791.18043	   3.00000	   0.02528	   1.53145	   0.28301	   1.55738	 -10.47024
39846.24544	   3.00000	   0.01999	   1.57102	   0.33405	   1.60614	 -12.00409
55331.43170	   4.00000	20004.45300	   0.41045	  -0.02832	   0.41143	   3.94667
55331.57470	   4.00000	15829.12600	   0.41559	  -0.00940	   0.41569	   1.29610
55331.71670	   4.00000	12516.70300	   0.42220	   0.00569	   0.42224	  -0.77218
55331.85870	   4.00000	9909.44240	   0.42891	   0.01925	   0.42934	  -2.56997
55332.02270	   4.00000	7835.48000	   0.43902	   0.02936	   0.44000	  -3.82541
55332.22370	   4.00000	6217.24610	   0.44718	   0.03886	   0.44887	  -4.96680
55332.46170	   4.00000	4905.29100	   0.45487	   0.04831	   0.45743	  -6.06253
55332.70070	   4.00000	3881.27370	   0.46574	   0.05595	   0.46909	  -6.85048
55332.93870	   4.00000	3070.98270	   0.47457	   0.06247	   0.47866	  -7.49917
55333.17670	   4.00000	2430.77780	   0.48529	   0.06765	   0.48998	  -7.93600
55333.41470	   4.00000	1923.15370	   0.49603	   0.07631	   0.50187	  -8.74559
55333.65270	   4.00000	1522.43580	   0.50900	   0.08360	   0.51582	  -9.32705
55333.89070	   4.00000	1203.84460	   0.52196	   0.08953	   0.52958	  -9.73336
55334.12970	   4.00000	 952.86591	   0.53576	   0.09885	   0.54480	 -10.45368
55334.36770	   4.00000	 754.27557	   0.55147	   0.10426	   0.56124	 -10.70577
55334.60470	   4.00000	 596.71857	   0.56729	   0.11099	   0.57804	 -11.07052
55334.84270	   4.00000	 471.96338	   0.58369	   0.11826	   0.59555	 -11.45355
55335.08170	   4.00000	 373.20856	   0.60216	   0.12629	   0.61527	 -11.84510
55335.31970	   4.00000	 295.47278	   0.62136	   0.13130	   0.63508	 -11.93140
55335.55870	   4.00000	 233.87738	   0.64096	   0.13912	   0.65589	 -12.24625
55335.79670	   4.00000	 185.05922	   0.66230	   0.14686	   0.67839	 -12.50280
55336.03270	   4.00000	 146.35823	   0.68551	   0.15370	   0.70253	 -12.63715
55336.26870	   4.00000	 115.77804	   0.70788	   0.16116	   0.72599	 -12.82574
55336.50370	   4.00000	  91.67210	   0.73310	   0.16721	   0.75192	 -12.84858
55336.74870	   4.00000	  72.51701	   0.75757	   0.17519	   0.77756	 -13.02094
55336.97770	   4.00000	  57.36816	   0.78468	   0.18308	   0.80575	 -13.13340
55337.21470	   4.00000	  45.36290	   0.81106	   0.19137	   0.83333	 -13.27602
55337.44670	   4.00000	  35.93134	   0.83705	   0.19911	   0.86041	 -13.38039
55337.69670	   4.00000	  28.40909	   0.86866	   0.20996	   0.89368	 -13.58827
55337.91070	   4.00000	  22.48202	   0.90184	   0.22006	   0.92830	 -13.71302
55338.17570	   4.00000	  17.79613	   0.93852	   0.23365	   0.96717	 -13.97994
55338.42770	   4.00000	  14.06813	   0.98195	   0.24400	   1.01181	 -13.95442
55338.64370	   4.00000	  11.14480	   1.02602	   0.24863	   1.05571	 -13.62154
55338.91170	   4.00000	   8.81772	   1.07511	   0.24718	   1.10316	 -12.94806
55339.08970	   4.00000	   6.97545	   1.12158	   0.24069	   1.14712	 -12.11192
55339.30770	   4.00000	   5.51730	   1.16709	   0.22536	   1.18865	 -10.92899
55339.57670	   4.00000	   4.36941	   1.20440	   0.20705	   1.22207	  -9.75448
55339.91170	   4.00000	   3.45686	   1.23861	   0.18378	   1.25217	  -8.43970
55340.33070	   4.00000	   2.73547	   1.26589	   0.16423	   1.27650	  -7.39212
55340.85570	   4.00000	   2.16054	   1.28461	   0.14339	   1.29259	  -6.36892
55341.51470	   4.00000	   1.70952	   1.30143	   0.12499	   1.30742	  -5.48581
55342.34370	   4.00000	   1.35352	   1.31411	   0.10954	   1.31866	  -4.76520
55343.38670	   4.00000	   1.07079	   1.32296	   0.09696	   1.32651	  -4.19187
55344.70070	   4.00000	   0.84734	   1.33078	   0.08683	   1.33360	  -3.73300
55346.35570	   4.00000	   0.67072	   1.33714	   0.07993	   1.33952	  -3.42075
55348.44470	   4.00000	   0.53067	   1.34418	   0.07477	   1.34626	  -3.18399
55351.08170	   4.00000	   0.41976	   1.35049	   0.07303	   1.35246	  -3.09526
55354.41270	   4.00000	   0.33183	   1.35603	   0.07448	   1.35808	  -3.14395
55358.61871	   4.00000	   0.26261	   1.36052	   0.07814	   1.36277	  -3.28701
55363.92671	   4.00000	   0.20791	   1.36628	   0.08296	   1.36880	  -3.47457
55370.63171	   4.00000	   0.16452	   1.37388	   0.08936	   1.37678	  -3.72160
55379.10771	   4.00000	   0.13007	   1.38308	   0.10081	   1.38675	  -4.16890
55389.79771	   4.00000	   0.10309	   1.39156	   0.11673	   1.39645	  -4.79501
55403.31171	   4.00000	   0.08153	   1.40141	   0.13359	   1.40777	  -5.44516
55420.40971	   4.00000	   0.06443	   1.41541	   0.15491	   1.42386	  -6.24576
55441.99671	   4.00000	   0.05102	   1.43818	   0.17875	   1.44924	  -7.08493
55469.23871	   4.00000	   0.04042	   1.46322	   0.21333	   1.47869	  -8.29491
55503.73471	   4.00000	   0.03192	   1.48875	   0.25505	   1.51044	  -9.72155
55547.28171	   4.00000	   0.02528	   1.51587	   0.29028	   1.54342	 -10.84044
55602.34672	   4.00000	   0.01999	   1.55742	   0.32389	   1.59074	 -11.74820
70987.67175	   5.00000	20004.45300	   0.40910	  -0.02899	   0.41013	   4.05400
70987.81475	   5.00000	15829.12600	   0.41626	  -0.00959	   0.41637	   1.31918
70987.95675	   5.00000	12516.70300	   0.42349	   0.00582	   0.42353	  -0.78761
70988.09875	   5.00000	9909.44240	   0.43104	   0.01740	   0.43139	  -2.31200
70988.26275	   5.00000	7835.48000	   0.43894	   0.02812	   0.43983	  -3.66516
70988.46375	   5.00000	6217.24610	   0.44569	   0.03866	   0.44737	  -4.95766
70988.70175	   5.00000	4905.29100	   0.45601	   0.04746	   0.45848	  -5.94204
70988.93975	   5.00000	3881.27370	   0.46498	   0.05500	   0.46823	  -6.74566
70989.17875	   5.00000	3070.98270	   0.47589	   0.06222	   0.47994	  -7.44904
70989.41675	   5.00000	2430.77780	   0.48454	   0.07062	   0.48966	  -8.29237
70989.65475	   5.00000	1923.15370	   0.49740	   0.07681	   0.50330	  -8.77837
70989.89275	   5.00000	1522.43580	   0.51121	   0.08405	   0.51807	  -9.33646
70990.13075	   5.00000	1203.84460	   0.52298	   0.09140	   0.53091	  -9.91362
70990.36975	   5.00000	 952.86591	   0.53671	   0.09833	   0.54565	 -10.38151
70990.60775	   5.00000	 754.27557	   0.55180	   0.10400	   0.56152	 -10.67326
