time/s	           cycle number	freq/Hz	           Re(Z)/Ohm	  -Im(Z)/Ohm	   |Z|/Ohm	   Phase(Z)/deg
12624.03117	   1.00000	20004.45300	   0.30065	  -0.01226	   0.30090	   2.33531
12624.17417	   1.00000	15829.12600	   0.30717	   0.00785	   0.30727	  -1.46359
12624.31617	   1.00000	12516.70300	   0.31678	   0.02464	   0.31774	  -4.44748
12624.45817	   1.00000	9909.44240	   0.32634	   0.03953	   0.32873	  -6.90600
12624.62217	   1.00000	7835.48000	   0.33815	   0.05204	   0.34213	  -8.74935
12624.82317	   1.00000	6217.24610	   0.34954	   0.06511	   0.35555	 -10.55165
12625.06117	   1.00000	4905.29100	   0.36314	   0.07492	   0.37078	 -11.65791
12625.30017	   1.00000	3881.27370	   0.37550	   0.08588	   0.38519	 -12.88304
12625.53817	   1.00000	3070.98270	   0.39295	   0.09573	   0.40444	 -13.69149
12625.77617	   1.00000	2430.77780	   0.40650	   0.10420	   0.41964	 -14.37719
12626.01417	   1.00000	1923.15370	   0.42239	   0.11315	   0.43728	 -14.99692
12626.25217	   1.00000	1522.43580	   0.44004	   0.12250	   0.45677	 -15.55689
12626.49017	   1.00000	1203.84460	   0.45907	   0.13227	   0.47775	 -16.07294
12626.72917	   1.00000	 952.86591	   0.48096	   0.13980	   0.50087	 -16.20750
12626.96717	   1.00000	 754.27557	   0.50115	   0.14969	   0.52303	 -16.63019
12627.20417	   1.00000	 596.71857	   0.52386	   0.15871	   0.54737	 -16.85501
12627.44117	   1.00000	 471.96338	   0.54940	   0.16765	   0.57441	 -16.96982
12627.68117	   1.00000	 373.20856	   0.57675	   0.17813	   0.60363	 -17.16336
12627.91817	   1.00000	 295.47278	   0.60197	   0.18647	   0.63019	 -17.21091
12628.15717	   1.00000	 233.87738	   0.62987	   0.19582	   0.65961	 -17.27004
12628.39617	   1.00000	 185.05922	   0.66085	   0.20477	   0.69184	 -17.21573
12628.63217	   1.00000	 146.35823	   0.69269	   0.21584	   0.72554	 -17.30712
12628.86817	   1.00000	 115.77804	   0.72598	   0.22444	   0.75988	 -17.17907
12629.10217	   1.00000	  91.67210	   0.76267	   0.23276	   0.79739	 -16.97180
12629.34817	   1.00000	  72.51701	   0.79960	   0.23986	   0.83481	 -16.69800
12629.57717	   1.00000	  57.36816	   0.83783	   0.24747	   0.87361	 -16.45583
12629.81417	   1.00000	  45.36290	   0.87757	   0.25151	   0.91290	 -15.99232
12630.04617	   1.00000	  35.93134	   0.91629	   0.25516	   0.95116	 -15.56092
12630.29617	   1.00000	  28.40909	   0.95719	   0.26066	   0.99204	 -15.23315
12630.51117	   1.00000	  22.48202	   0.99962	   0.26181	   1.03334	 -14.67672
12630.77617	   1.00000	  17.79613	   1.04150	   0.26372	   1.07437	 -14.20914
12631.02817	   1.00000	  14.06813	   1.08542	   0.26563	   1.11745	 -13.75168
12631.24417	   1.00000	  11.14480	   1.13319	   0.26074	   1.16280	 -12.95807
12631.51117	   1.00000	   8.81772	   1.17728	   0.25339	   1.20424	 -12.14653
12631.68917	   1.00000	   6.97545	   1.21959	   0.24329	   1.24362	 -11.28135
12631.90817	   1.00000	   5.51730	   1.26507	   0.22356	   1.28467	 -10.02192
12632.17717	   1.00000	   4.36941	   1.29895	   0.20846	   1.31557	  -9.11714
12632.51217	   1.00000	   3.45686	   1.33075	   0.18681	   1.34379	  -7.99117
12632.93117	   1.00000	   2.73547	   1.35705	   0.16899	   1.36753	  -7.09845
12633.45617	   1.00000	   2.16054	   1.37743	   0.14992	   1.38556	  -6.21182
12634.11517	   1.00000	   1.70952	   1.39425	   0.13214	   1.40050	  -5.41404
12634.94317	   1.00000	   1.35352	   1.40882	   0.11795	   1.41375	  -4.78579
12635.98617	   1.00000	   1.07079	   1.41995	   0.10710	   1.42399	  -4.31356
12637.30017	   1.00000	   0.84734	   1.42976	   0.09970	   1.43323	  -3.98880
12638.95617	   1.00000	   0.67072	   1.43832	   0.09389	   1.44139	  -3.73490
12641.04517	   1.00000	   0.53067	   1.44687	   0.08942	   1.44964	  -3.53658
12643.68117	   1.00000	   0.41976	   1.45560	   0.08874	   1.45831	  -3.48870
12647.01317	   1.00000	   0.33183	   1.46315	   0.09163	   1.46602	  -3.58366
12651.21917	   1.00000	   0.26261	   1.46995	   0.09534	   1.47303	  -3.71085
12656.52717	   1.00000	   0.20791	   1.47780	   0.10032	   1.48120	  -3.88373
12663.23117	   1.00000	   0.16452	   1.48792	   0.10814	   1.49184	  -4.15683
12671.70717	   1.00000	   0.13007	   1.49844	   0.12036	   1.50326	  -4.59230
12682.39817	   1.00000	   0.10309	   1.50882	   0.13587	   1.51492	  -5.14563
12695.91117	   1.00000	   0.08153	   1.51991	   0.15397	   1.52768	  -5.78446
12713.00917	   1.00000	   0.06443	   1.53500	   0.17637	   1.54510	  -6.55467
12734.59617	   1.00000	   0.05102	   1.55702	   0.20248	   1.57013	  -7.40917
12761.83817	   1.00000	   0.04042	   1.58194	   0.24127	   1.60023	  -8.67153
12796.33417	   1.00000	   0.03192	   1.60458	   0.28804	   1.63023	 -10.17683
12839.88118	   1.00000	   0.02528	   1.62815	   0.33312	   1.66187	 -11.56301
12894.94618	   1.00000	   0.01999	   1.66521	   0.37771	   1.70751	 -12.77999
28396.83388	   2.00000	20004.45300	   0.30273	  -0.01148	   0.30295	   2.17253
28396.97688	   2.00000	15829.12600	   0.31146	   0.00717	   0.31154	  -1.31920
28397.11888	   2.00000	12516.70300	   0.32014	   0.02693	   0.32127	  -4.80847
28397.26088	   2.00000	9909.44240	   0.33152	   0.03974	   0.33390	  -6.83465
28397.42488	   2.00000	7835.48000	   0.34141	   0.05499	   0.34581	  -9.15041
28397.62588	   2.00000	6217.24610	   0.35313	   0.06460	   0.35899	 -10.36657
28397.86388	   2.00000	4905.29100	   0.36574	   0.07608	   0.37357	 -11.75015
28398.10288	   2.00000	3881.27370	   0.37895	   0.08639	   0.38868	 -12.84205
28398.34088	   2.00000	3070.98270	   0.39520	   0.09638	   0.40678	 -13.70491
28398.57888	   2.00000	2430.77780	   0.41037	   0.10658	   0.42399	 -14.55928
28398.81688	   2.00000	1923.15370	   0.42690	   0.11363	   0.44177	 -14.90514
28399.05488	   2.00000	1522.43580	   0.44480	   0.12298	   0.46148	 -15.45507
28399.29288	   2.00000	1203.84460	   0.46529	   0.13315	   0.48397	 -15.96950
28399.53188	   2.00000	 952.86591	   0.48513	   0.14173	   0.50541	 -16.28622
28399.76988	   2.00000	 754.27557	   0.50530	   0.15031	   0.52718	 -16.56609
28400.00688	   2.00000	 596.71857	   0.52965	   0.15965	   0.55319	 -16.77460
28400.24488	   2.00000	 471.96338	   0.55495	   0.16943	   0.58024	 -16.97774
28400.48388	   2.00000	 373.20856	   0.58002	   0.17884	   0.60696	 -17.13625
28400.72088	   2.00000	 295.47278	   0.60743	   0.18777	   0.63579	 -17.17721
28400.96088	   2.00000	 233.87738	   0.63701	   0.19911	   0.66740	 -17.35800
28401.19888	   2.00000	 185.05922	   0.66800	   0.20752	   0.69949	 -17.25770
28401.43488	   2.00000	 146.35823	   0.70014	   0.21680	   0.73294	 -17.20527
28401.67088	   2.00000	 115.77804	   0.73316	   0.22541	   0.76703	 -17.08965
28401.90588	   2.00000	  91.67210	   0.76884	   0.23428	   0.80374	 -16.94734
28402.15088	   2.00000	  72.51701	   0.80505	   0.24151	   0.84049	 -16.69915
28402.37988	   2.00000	  57.36816	   0.84457	   0.24795	   0.88021	 -16.36139
28402.61688	   2.00000	  45.36290	   0.88358	   0.25261	   0.91898	 -15.95496
28402.84888	   2.00000	  35.93134	   0.92286	   0.25658	   0.95786	 -15.53752
28403.09888	   2.00000	  28.40909	   0.96518	   0.25973	   0.99952	 -15.06161
28403.31388	   2.00000	  22.48202	   1.00488	   0.26414	   1.03902	 -14.72740
28403.57888	   2.00000	  17.79613	   1.04921	   0.26730	   1.08273	 -14.29261
28403.83088	   2.00000	  14.06813	   1.09495	   0.26539	   1.12665	 -13.62433
28404.04688	   2.00000	  11.14480	   1.13876	   0.26283	   1.16869	 -12.99651
28404.31388	   2.00000	   8.81772	   1.18576	   0.25740	   1.21337	 -12.24746
28404.49188	   2.00000	   6.97545	   1.23494	   0.24430	   1.25888	 -11.19002
28404.70988	   2.00000	   5.51730	   1.27049	   0.22904	   1.29097	 -10.21953
28404.97988	   2.00000	   4.36941	   1.31157	   0.21037	   1.32834	  -9.11233
28405.31488	   2.00000	   3.45686	   1.34021	   0.19135	   1.35380	  -8.12570
28405.73388	   2.00000	   2.73547	   1.36736	   0.16968	   1.37785	  -7.07405
28406.25888	   2.00000	   2.16054	   1.39003	   0.15052	   1.39815	  -6.18006
28406.91788	   2.00000	   1.70952	   1.40670	   0.13483	   1.41314	  -5.47494
28407.74588	   2.00000	   1.35352	   1.41988	   0.12031	   1.42497	  -4.84325
28408.78888	   2.00000	   1.07079	   1.43201	   0.10882	   1.43614	  -4.34554
28410.10288	   2.00000	   0.84734	   1.44223	   0.10018	   1.44571	  -3.97361
28411.75888	   2.00000	   0.67072	   1.45129	   0.09482	   1.45438	  -3.73792
28413.84788	   2.00000	   0.53067	   1.45855	   0.09226	   1.46146	  -3.61922
28416.48388	   2.00000	   0.41976	   1.46638	   0.09055	   1.46917	  -3.53373
28419.81588	   2.00000	   0.33183	   1.47468	   0.09106	   1.47749	  -3.53358
28424.02088	   2.00000	   0.26261	   1.48347	   0.09516	   1.48652	  -3.67026
28429.32888	   2.00000	   0.20791	   1.49198	   0.10198	   1.49546	  -3.91033
28436.03388	   2.00000	   0.16452	   1.50013	   0.11077	   1.50422	  -4.22308
28444.50988	   2.00000	   0.13007	   1.51059	   0.12175	   1.51549	  -4.60790
28455.20088	   2.00000	   0.10309	   1.52321	   0.13601	   1.52927	  -5.10255
28468.71488	   2.00000	   0.08153	   1.53892	   0.15680	   1.54688	  -5.81793
28485.81188	   2.00000	   0.06443	   1.55449	   0.18452	   1.56541	  -6.76931
28507.39889	   2.00000	   0.05102	   1.56710	   0.21545	   1.58184	  -7.82797
28534.64089	   2.00000	   0.04042	   1.58428	   0.24526	   1.60315	  -8.79997
28569.13689	   2.00000	   0.03192	   1.61291	   0.28065	   1.63715	  -9.87074
28612.68389	   2.00000	   0.02528	   1.64805	   0.32698	   1.68018	 -11.22193
28667.74989	   2.00000	   0.01999	   1.68682	   0.38357	   1.72988	 -12.81067
43763.21112	   3.00000	20004.45300	   0.30428	  -0.01141	   0.30450	   2.14819
43763.35412	   3.00000	15829.12600	   0.31255	   0.00855	   0.31266	  -1.56672
43763.49612	   3.00000	12516.70300	   0.32131	   0.02669	   0.32242	  -4.74756
43763.63812	   3.00000	9909.44240	   0.33215	   0.04066	   0.33463	  -6.97891
43763.80212	   3.00000	7835.48000	   0.34238	   0.05316	   0.34649	  -8.82507
43764.00312	   3.00000	6217.24610	   0.35537	   0.06439	   0.36116	 -10.27028
43764.24112	   3.00000	4905.29100	   0.36930	   0.07727	   0.37729	 -11.81818
43764.48012	   3.00000	3881.27370	   0.38221	   0.08766	   0.39214	 -12.91802
43764.71812	   3.00000	3070.98270	   0.39833	   0.09671	   0.40991	 -13.64687
43764.95612	   3.00000	2430.77780	   0.41405	   0.10552	   0.42728	 -14.29779
43765.19412	   3.00000	1923.15370	   0.42946	   0.11509	   0.44461	 -15.00175
43765.43212	   3.00000	1522.43580	   0.44669	   0.12397	   0.46357	 -15.51133
43765.67012	   3.00000	1203.84460	   0.46646	   0.13322	   0.48511	 -15.93881
43765.90912	   3.00000	 952.86591	   0.48727	   0.14342	   0.50793	 -16.40070
43766.14712	   3.00000	 754.27557	   0.50776	   0.15087	   0.52970	 -16.54815
43766.38412	   3.00000	 596.71857	   0.53210	   0.16150	   0.55607	 -16.88361
43766.62212	   3.00000	 471.96338	   0.55644	   0.17139	   0.58224	 -17.11903
43766.86112	   3.00000	 373.20856	   0.58269	   0.18032	   0.60995	 -17.19523
43767.09912	   3.00000	 295.47278	   0.61190	   0.19003	   0.64073	 -17.25278
43767.33812	   3.00000	 233.87738	   0.63903	   0.19938	   0.66941	 -17.32838
43767.57612	   3.00000	 185.05922	   0.66918	   0.20836	   0.70087	 -17.29529
43767.81212	   3.00000	 146.35823	   0.70218	   0.21698	   0.73494	 -17.17187
43768.04912	   3.00000	 115.77804	   0.73599	   0.22601	   0.76991	 -17.07075
43768.28312	   3.00000	  91.67210	   0.77127	   0.23374	   0.80591	 -16.85976
43768.52812	   3.00000	  72.51701	   0.80874	   0.24024	   0.84367	 -16.54437
43768.75712	   3.00000	  57.36816	   0.84747	   0.24930	   0.88338	 -16.39217
43768.99412	   3.00000	  45.36290	   0.88867	   0.25196	   0.92370	 -15.82914
43769.22612	   3.00000	  35.93134	   0.92810	   0.25651	   0.96290	 -15.45006
43769.47712	   3.00000	  28.40909	   0.96697	   0.26110	   1.00160	 -15.11065
43769.69112	   3.00000	  22.48202	   1.01001	   0.26521	   1.04425	 -14.71289
43769.95612	   3.00000	  17.79613	   1.05315	   0.26699	   1.08647	 -14.22583
43770.20812	   3.00000	  14.06813	   1.09875	   0.26666	   1.13065	 -13.64142
43770.42412	   3.00000	  11.14480	   1.14431	   0.26443	   1.17447	 -13.01184
43770.69212	   3.00000	   8.81772	   1.19063	   0.25824	   1.21831	 -12.23758
43770.87012	   3.00000	   6.97545	   1.23656	   0.24942	   1.26147	 -11.40359
43771.08812	   3.00000	   5.51730	   1.27846	   0.22892	   1.29880	 -10.15152
43771.35712	   3.00000	   4.36941	   1.31459	   0.21513	   1.33208	  -9.29418
43771.69212	   3.00000	   3.45686	   1.34709	   0.19155	   1.36064	  -8.09279
43772.11112	   3.00000	   2.73547	   1.37603	   0.17111	   1.38663	  -7.08820
43772.63612	   3.00000	   2.16054	   1.39632	   0.15339	   1.40472	  -6.26880
43773.29512	   3.00000	   1.70952	   1.41286	   0.13591	   1.41938	  -5.49457
43774.12412	   3.00000	   1.35352	   1.42708	   0.12144	   1.43223	  -4.86389
43775.16712	   3.00000	   1.07079	   1.43975	   0.11006	   1.44395	  -4.37155
43776.48112	   3.00000	   0.84734	   1.44935	   0.10222	   1.45295	  -4.03440
43778.13612	   3.00000	   0.67072	   1.45831	   0.09654	   1.46150	  -3.78765
43780.22512	   3.00000	   0.53067	   1.46656	   0.09176	   1.46943	  -3.58005
43782.86212	   3.00000	   0.41976	   1.47502	   0.09085	   1.47781	  -3.52461
43786.19312	   3.00000	   0.33183	   1.48390	   0.09258	   1.48678	  -3.57015
43790.39912	   3.00000	   0.26261	   1.49132	   0.09716	   1.49448	  -3.72745
43795.70712	   3.00000	   0.20791	   1.49945	   0.10269	   1.50297	  -3.91761
43802.41112	   3.00000	   0.16452	   1.50953	   0.11068	   1.51358	  -4.19331
43810.88812	   3.00000	   0.13007	   1.52137	   0.12290	   1.52632	  -4.61830
43821.57813	   3.00000	   0.10309	   1.53380	   0.14066	   1.54024	  -5.23968
43835.09213	   3.00000	   0.08153	   1.54462	   0.16286	   1.55318	  -6.01892
43852.19013	   3.00000	   0.06443	   1.55697	   0.18800	   1.56828	  -6.88515
43873.77613	   3.00000	   0.05102	   1.57368	   0.21056	   1.58771	  -7.62113
43901.01913	   3.00000	   0.04042	   1.59779	   0.24257	   1.61610	  -8.63234
43935.51413	   3.00000	   0.03192	   1.62610	   0.28512	   1.65090	  -9.94512
43979.06113	   3.00000	   0.02528	   1.65588	   0.33258	   1.68895	 -11.35668
44034.12714	   3.00000	   0.01999	   1.69538	   0.37911	   1.73725	 -12.60462
58885.48000	   4.00000	20004.45300	   0.30531	  -0.01002	   0.30548	   1.87982
58885.62300	   4.00000	15829.12600	   0.31460	   0.01017	   0.31477	  -1.85159
58885.76500	   4.00000	12516.70300	   0.32264	   0.02506	   0.32361	  -4.44119
58885.90700	   4.00000	9909.44240	   0.33270	   0.04068	   0.33517	  -6.97066
58886.07100	   4.00000	7835.48000	   0.34345	   0.05353	   0.34759	  -8.85841
58886.27200	   4.00000	6217.24610	   0.35495	   0.06571	   0.36098	 -10.48891
58886.51000	   4.00000	4905.29100	   0.36895	   0.07489	   0.37647	 -11.47477
58886.74900	   4.00000	3881.27370	   0.38313	   0.08677	   0.39283	 -12.76080
58886.98700	   4.00000	3070.98270	   0.39797	   0.09622	   0.40944	 -13.59202
58887.22500	   4.00000	2430.77780	   0.41231	   0.10667	   0.42588	 -14.50517
58887.46300	   4.00000	1923.15370	   0.42970	   0.11444	   0.44468	 -14.91351
58887.70100	   4.00000	1522.43580	   0.44852	   0.12542	   0.46573	 -15.62261
58887.93900	   4.00000	1203.84460	   0.46707	   0.13335	   0.48573	 -15.93463
58888.17800	   4.00000	 952.86591	   0.48806	   0.14329	   0.50866	 -16.36216
58888.41600	   4.00000	 754.27557	   0.50830	   0.15087	   0.53021	 -16.53111
58888.65400	   4.00000	 596.71857	   0.53282	   0.16076	   0.55654	 -16.78924
58888.89100	   4.00000	 471.96338	   0.55648	   0.17114	   0.58220	 -17.09484
58889.13000	   4.00000	 373.20856	   0.58561	   0.17969	   0.61256	 -17.05840
58889.36800	   4.00000	 295.47278	   0.61180	   0.18829	   0.64012	 -17.10654
58889.60700	   4.00000	 233.87738	   0.63888	   0.19852	   0.66901	 -17.26180
58889.84500	   4.00000	 185.05922	   0.67044	   0.20733	   0.70177	 -17.18410
58890.08100	   4.00000	 146.35823	   0.70306	   0.21653	   0.73565	 -17.11781
58890.31700	   4.00000	 115.77804	   0.73593	   0.22686	   0.77010	 -17.13266
58890.55200	   4.00000	  91.67210	   0.77354	   0.23453	   0.80832	 -16.86662
58890.79700	   4.00000	  72.51701	   0.81049	   0.24108	   0.84559	 -16.56504
58891.02600	   4.00000	  57.36816	   0.84813	   0.24870	   0.88385	 -16.34306
58891.26300	   4.00000	  45.36290	   0.88928	   0.25290	   0.92454	 -15.87497
58891.49500	   4.00000	  35.93134	   0.92698	   0.25579	   0.96162	 -15.42633
58891.74500	   4.00000	  28.40909	   0.96827	   0.26056	   1.00272	 -15.06112
58891.96000	   4.00000	  22.48202	   1.00925	   0.26281	   1.04291	 -14.59604
58892.22500	   4.00000	  17.79613	   1.05289	   0.26756	   1.08636	 -14.25805
58892.47700	   4.00000	  14.06813	   1.09817	   0.26826	   1.13046	 -13.72718
58892.69300	   4.00000	  11.14480	   1.14497	   0.26348	   1.17489	 -12.95928
58892.96000	   4.00000	   8.81772	   1.19156	   0.25881	   1.21934	 -12.25437
58893.13800	   4.00000	   6.97545	   1.23942	   0.24850	   1.26408	 -11.33736
58893.35700	   4.00000	   5.51730	   1.27806	   0.22992	   1.29858	 -10.19809
58893.62600	   4.00000	   4.36941	   1.31638	   0.21462	   1.33376	  -9.25982
58893.96100	   4.00000	   3.45686	   1.34720	   0.19400	   1.36109	  -8.19435
58894.38000	   4.00000	   2.73547	   1.37643	   0.17176	   1.38711	  -7.11289
58894.90500	   4.00000	   2.16054	   1.39837	   0.15329	   1.40675	  -6.25590
58895.56400	   4.00000	   1.70952	   1.41487	   0.13647	   1.42144	  -5.50936
58896.39200	   4.00000	   1.35352	   1.42869	   0.12159	   1.43385	  -4.86457
58897.43500	   4.00000	   1.07079	   1.44118	   0.11023	   1.44539	  -4.37390
58898.74900	   4.00000	   0.84734	   1.45109	   0.10207	   1.45468	  -4.02336
58900.40500	   4.00000	   0.67072	   1.46067	   0.09661	   1.46387	  -3.78421
58902.49400	   4.00000	   0.53067	   1.46818	   0.09251	   1.47110	  -3.60546
58905.13000	   4.00000	   0.41976	   1.47682	   0.09102	   1.47963	  -3.52670
58908.46200	   4.00000	   0.33183	   1.48579	   0.09286	   1.48869	  -3.57623
58912.66800	   4.00000	   0.26261	   1.49442	   0.09841	   1.49766	  -3.76740
58917.97600	   4.00000	   0.20791	   1.50163	   0.10523	   1.50532	  -4.00853
58924.68000	   4.00000	   0.16452	   1.51007	   0.11351	   1.51433	  -4.29871
58933.15700	   4.00000	   0.13007	   1.52044	   0.12384	   1.52547	  -4.65652
58943.84700	   4.00000	   0.10309	   1.53380	   0.13928	   1.54011	  -5.18882
58957.36100	   4.00000	   0.08153	   1.54678	   0.15964	   1.55499	  -5.89248
58974.45900	   4.00000	   0.06443	   1.56202	   0.18499	   1.57293	  -6.75420
58996.04501	   4.00000	   0.05102	   1.57925	   0.20918	   1.59305	  -7.54517
59023.28801	   4.00000	   0.04042	   1.60673	   0.24113	   1.62472	  -8.53515
59057.78301	   4.00000	   0.03192	   1.64082	   0.28777	   1.66586	  -9.94739
59101.33101	   4.00000	   0.02528	   1.67061	   0.34325	   1.70551	 -11.61068
59156.39601	   4.00000	   0.01999	   1.70101	   0.39859	   1.74709	 -13.18804
73851.50694	   5.00000	20004.45300	   0.30558	  -0.01087	   0.30578	   2.03749
73851.64994	   5.00000	15829.12600	   0.31200	   0.01061	   0.31218	  -1.94840
73851.79194	   5.00000	12516.70300	   0.32348	   0.02563	   0.32450	  -4.53051
73851.93394	   5.00000	9909.44240	   0.33267	   0.04041	   0.33512	  -6.92553
73852.09794	   5.00000	7835.48000	   0.34482	   0.05218	   0.34875	  -8.60464
73852.29894	   5.00000	6217.24610	   0.35566	   0.06585	   0.36170	 -10.49021
73852.53694	   5.00000	4905.29100	   0.36931	   0.07571	   0.37699	 -11.58539
73852.77594	   5.00000	3881.27370	   0.38407	   0.08736	   0.39388	 -12.81389
73853.01394	   5.00000	3070.98270	   0.39665	   0.09722	   0.40839	 -13.77228
73853.25194	   5.00000	2430.77780	   0.41360	   0.10552	   0.42685	 -14.31210
73853.48994	   5.00000	1923.15370	   0.43142	   0.11536	   0.44658	 -14.97071
73853.72794	   5.00000	1522.43580	   0.44972	   0.12462	   0.46666	 -15.48831
73853.96594	   5.00000	1203.84460	   0.46741	   0.13374	   0.48617	 -15.96786
73854.20494	   5.00000	 952.86591	   0.48990	   0.14373	   0.51055	 -16.35083
