time/s	           cycle number	freq/Hz	           Re(Z)/Ohm	  -Im(Z)/Ohm	   |Z|/Ohm	   Phase(Z)/deg
7325.25793	   1.00000	20004.45300	   0.30372	  -0.01551	   0.30412	   2.92397
7325.40093	   1.00000	15829.12600	   0.31055	   0.00570	   0.31060	  -1.05214
7325.54293	   1.00000	12516.70300	   0.32138	   0.02411	   0.32229	  -4.29094
7325.68493	   1.00000	9909.44240	   0.33015	   0.03777	   0.33230	  -6.52581
7325.84893	   1.00000	7835.48000	   0.34146	   0.04993	   0.34510	  -8.31866
7326.04993	   1.00000	6217.24610	   0.35230	   0.06262	   0.35782	 -10.07890
7326.28793	   1.00000	4905.29100	   0.36491	   0.07171	   0.37189	 -11.11746
7326.52593	   1.00000	3881.27370	   0.37856	   0.08121	   0.38717	 -12.10745
7326.76393	   1.00000	3070.98270	   0.39114	   0.08988	   0.40134	 -12.94147
7327.00293	   1.00000	2430.77780	   0.40596	   0.09821	   0.41767	 -13.59975
7327.24093	   1.00000	1923.15370	   0.42135	   0.10914	   0.43526	 -14.52128
7327.47893	   1.00000	1522.43580	   0.43924	   0.11677	   0.45450	 -14.88690
7327.71693	   1.00000	1203.84460	   0.45639	   0.12690	   0.47371	 -15.53826
7327.95493	   1.00000	 952.86591	   0.47635	   0.13374	   0.49477	 -15.68293
7328.19393	   1.00000	 754.27557	   0.49736	   0.14410	   0.51781	 -16.15799
7328.43093	   1.00000	 596.71857	   0.51903	   0.15331	   0.54119	 -16.45586
7328.66793	   1.00000	 471.96338	   0.54301	   0.16357	   0.56711	 -16.76391
7328.90693	   1.00000	 373.20856	   0.56715	   0.17355	   0.59311	 -17.01378
7329.14493	   1.00000	 295.47278	   0.59112	   0.18387	   0.61906	 -17.27845
7329.38393	   1.00000	 233.87738	   0.62053	   0.19467	   0.65035	 -17.41743
7329.62193	   1.00000	 185.05922	   0.64950	   0.20631	   0.68148	 -17.62203
7329.85893	   1.00000	 146.35823	   0.68348	   0.21935	   0.71782	 -17.79286
7330.09493	   1.00000	 115.77804	   0.71747	   0.22752	   0.75268	 -17.59417
7330.32893	   1.00000	  91.67210	   0.75382	   0.24049	   0.79125	 -17.69449
7330.57493	   1.00000	  72.51701	   0.79269	   0.25011	   0.83121	 -17.51168
7330.80393	   1.00000	  57.36816	   0.82863	   0.26073	   0.86868	 -17.46637
7331.04093	   1.00000	  45.36290	   0.86966	   0.26757	   0.90989	 -17.10173
7331.27293	   1.00000	  35.93134	   0.90942	   0.27114	   0.94898	 -16.60147
7331.52293	   1.00000	  28.40909	   0.95038	   0.28357	   0.99178	 -16.61379
7331.73793	   1.00000	  22.48202	   0.98912	   0.29204	   1.03133	 -16.44927
7332.00293	   1.00000	  17.79613	   1.02696	   0.30159	   1.07033	 -16.36621
7332.25493	   1.00000	  14.06813	   1.06123	   0.32618	   1.11022	 -17.08551
7332.47093	   1.00000	  11.14480	   1.11674	   0.33588	   1.16616	 -16.73951
7332.73793	   1.00000	   8.81772	   1.16120	   0.37835	   1.22128	 -18.04684
7332.91593	   1.00000	   6.97545	   1.22008	   0.38593	   1.27967	 -17.55302
7333.13393	   1.00000	   5.51730	   1.28610	   0.39392	   1.34508	 -17.02948
7333.40393	   1.00000	   4.36941	   1.39665	   0.41821	   1.45792	 -16.66973
7333.73893	   1.00000	   3.45686	   1.46813	   0.45946	   1.53835	 -17.37792
7334.15693	   1.00000	   2.73547	   1.52681	   0.45426	   1.59295	 -16.56888
7334.68293	   1.00000	   2.16054	   1.59052	   0.41976	   1.64498	 -14.78421
7335.34193	   1.00000	   1.70952	   1.66030	   0.35750	   1.69835	 -12.15139
7336.16993	   1.00000	   1.35352	   1.74986	   0.28619	   1.77311	  -9.28860
7337.21293	   1.00000	   1.07079	   1.85066	   0.24080	   1.86626	  -7.41351
7338.52693	   1.00000	   0.84734	   1.93344	   0.23888	   1.94814	  -7.04326
7340.18293	   1.00000	   0.67072	   1.97487	   0.26088	   1.99203	  -7.52524
7342.27093	   1.00000	   0.53067	   1.95518	   0.29942	   1.97797	  -8.70665
7344.90793	   1.00000	   0.41976	   1.88385	   0.30394	   1.90821	  -9.16509
7348.23893	   1.00000	   0.33183	   1.79993	   0.24919	   1.81709	  -7.88223
7352.44493	   1.00000	   0.26261	   1.75089	   0.13691	   1.75623	  -4.47097
7357.75293	   1.00000	   0.20791	   1.77744	   0.00676	   1.77745	  -0.21776
7364.45793	   1.00000	   0.16452	   1.88425	  -0.08666	   1.88624	   2.63337
7372.93393	   1.00000	   0.13007	   2.03493	  -0.09225	   2.03702	   2.59550
7383.62393	   1.00000	   0.10309	   2.17217	   0.00684	   2.17218	  -0.18039
7397.13793	   1.00000	   0.08153	   2.23403	   0.18910	   2.24202	  -4.83831
7414.23493	   1.00000	   0.06443	   2.19800	   0.37916	   2.23046	  -9.78738
7435.82193	   1.00000	   0.05102	   2.02600	   0.55362	   2.10027	 -15.28348
7463.06393	   1.00000	   0.04042	   1.77687	   0.58937	   1.87207	 -18.35023
7497.55894	   1.00000	   0.03192	   1.56158	   0.45045	   1.62525	 -16.09069
7541.10694	   1.00000	   0.02528	   1.50210	   0.18540	   1.51350	  -7.03615
7596.17194	   1.00000	   0.01999	   1.66639	  -0.07447	   1.66806	   2.55895
22823.63185	   2.00000	20004.45300	   0.30556	  -0.01112	   0.30576	   2.08456
22823.77485	   2.00000	15829.12600	   0.31534	   0.00674	   0.31541	  -1.22406
22823.91685	   2.00000	12516.70300	   0.32435	   0.02357	   0.32521	  -4.15647
22824.05885	   2.00000	9909.44240	   0.33320	   0.03860	   0.33542	  -6.60805
22824.22285	   2.00000	7835.48000	   0.34511	   0.05216	   0.34903	  -8.59447
22824.42385	   2.00000	6217.24610	   0.35590	   0.06213	   0.36128	  -9.90190
22824.66185	   2.00000	4905.29100	   0.36878	   0.07355	   0.37604	 -11.27982
22824.90085	   2.00000	3881.27370	   0.38265	   0.08335	   0.39162	 -12.28828
22825.13885	   2.00000	3070.98270	   0.39638	   0.09397	   0.40737	 -13.33658
22825.37685	   2.00000	2430.77780	   0.41276	   0.10249	   0.42530	 -13.94459
22825.61485	   2.00000	1923.15370	   0.42741	   0.11067	   0.44150	 -14.51670
22825.85285	   2.00000	1522.43580	   0.44575	   0.11932	   0.46145	 -14.98525
22826.09085	   2.00000	1203.84460	   0.46365	   0.12913	   0.48130	 -15.56288
22826.32985	   2.00000	 952.86591	   0.48273	   0.13939	   0.50245	 -16.10651
22826.56785	   2.00000	 754.27557	   0.50614	   0.14790	   0.52730	 -16.28931
22826.80485	   2.00000	 596.71857	   0.52846	   0.15773	   0.55150	 -16.61825
22827.04285	   2.00000	 471.96338	   0.55044	   0.16917	   0.57585	 -17.08411
22827.28185	   2.00000	 373.20856	   0.57603	   0.17920	   0.60326	 -17.28086
22827.51985	   2.00000	 295.47278	   0.60320	   0.18879	   0.63205	 -17.37931
22827.75885	   2.00000	 233.87738	   0.63288	   0.20243	   0.66446	 -17.73700
22827.99685	   2.00000	 185.05922	   0.66396	   0.21186	   0.69694	 -17.69676
22828.23285	   2.00000	 146.35823	   0.69608	   0.22374	   0.73116	 -17.81852
22828.46885	   2.00000	 115.77804	   0.73162	   0.23401	   0.76814	 -17.73683
22828.70385	   2.00000	  91.67210	   0.76885	   0.24646	   0.80738	 -17.77331
22828.94885	   2.00000	  72.51701	   0.80637	   0.25430	   0.84551	 -17.50336
22829.17785	   2.00000	  57.36816	   0.84725	   0.25929	   0.88604	 -17.01620
22829.41485	   2.00000	  45.36290	   0.88509	   0.26677	   0.92442	 -16.77318
22829.64685	   2.00000	  35.93134	   0.92540	   0.27992	   0.96681	 -16.82947
22829.89685	   2.00000	  28.40909	   0.96007	   0.28521	   1.00154	 -16.54518
22830.11085	   2.00000	  22.48202	   0.99986	   0.29798	   1.04332	 -16.59538
22830.37585	   2.00000	  17.79613	   1.04739	   0.31334	   1.09325	 -16.65550
22830.62885	   2.00000	  14.06813	   1.09127	   0.31854	   1.13681	 -16.27223
22830.84485	   2.00000	  11.14480	   1.13360	   0.35192	   1.18697	 -17.24669
22831.11185	   2.00000	   8.81772	   1.18424	   0.35558	   1.23647	 -16.71296
22831.28985	   2.00000	   6.97545	   1.26479	   0.37144	   1.31820	 -16.36644
22831.50785	   2.00000	   5.51730	   1.32338	   0.42053	   1.38859	 -17.62854
22831.77785	   2.00000	   4.36941	   1.37812	   0.41783	   1.44007	 -16.86670
22832.11285	   2.00000	   3.45686	   1.45271	   0.40607	   1.50840	 -15.61694
22832.53085	   2.00000	   2.73547	   1.54637	   0.36937	   1.58987	 -13.43415
22833.05685	   2.00000	   2.16054	   1.66154	   0.34769	   1.69753	 -11.81894
22833.71585	   2.00000	   1.70952	   1.75043	   0.35364	   1.78579	 -11.42163
22834.54385	   2.00000	   1.35352	   1.79029	   0.35973	   1.82607	 -11.36135
22835.58685	   2.00000	   1.07079	   1.78863	   0.34664	   1.82191	 -10.96805
22836.90085	   2.00000	   0.84734	   1.76245	   0.29626	   1.78718	  -9.54206
22838.55685	   2.00000	   0.67072	   1.74760	   0.21710	   1.76103	  -7.08138
22840.64485	   2.00000	   0.53067	   1.76679	   0.10764	   1.77006	  -3.48623
22843.28185	   2.00000	   0.41976	   1.84204	   0.01647	   1.84211	  -0.51213
22846.61285	   2.00000	   0.33183	   1.95609	  -0.01301	   1.95614	   0.38107
22850.81885	   2.00000	   0.26261	   2.06382	   0.04188	   2.06424	  -1.16259
22856.12685	   2.00000	   0.20791	   2.10816	   0.16396	   2.11452	  -4.44716
22862.83085	   2.00000	   0.16452	   2.05789	   0.30199	   2.07993	  -8.34842
22871.30785	   2.00000	   0.13007	   1.92037	   0.38540	   1.95866	 -11.34783
22881.99785	   2.00000	   0.10309	   1.75555	   0.36592	   1.79329	 -11.77399
22895.51185	   2.00000	   0.08153	   1.63583	   0.24639	   1.65428	  -8.56566
22912.60985	   2.00000	   0.06443	   1.61453	   0.09829	   1.61752	  -3.48387
22934.19585	   2.00000	   0.05102	   1.71798	  -0.06313	   1.71914	   2.10439
22961.43785	   2.00000	   0.04042	   1.92701	  -0.12577	   1.93111	   3.73435
22995.93285	   2.00000	   0.03192	   2.16536	  -0.04523	   2.16583	   1.19655
23039.48086	   2.00000	   0.02528	   2.34360	   0.17395	   2.35005	  -4.24486
23094.54586	   2.00000	   0.01999	   2.38768	   0.47024	   2.43355	 -11.14153
37836.27363	   3.00000	20004.45300	   0.30834	  -0.01239	   0.30859	   2.30063
37836.41663	   3.00000	15829.12600	   0.31489	   0.00812	   0.31500	  -1.47791
37836.55863	   3.00000	12516.70300	   0.32565	   0.02523	   0.32662	  -4.42978
37836.70063	   3.00000	9909.44240	   0.33552	   0.03962	   0.33785	  -6.73532
37836.86463	   3.00000	7835.48000	   0.34531	   0.05257	   0.34928	  -8.65640
37837.06563	   3.00000	6217.24610	   0.35723	   0.06362	   0.36285	 -10.09724
37837.30363	   3.00000	4905.29100	   0.36869	   0.07524	   0.37629	 -11.53456
37837.54163	   3.00000	3881.27370	   0.38355	   0.08442	   0.39273	 -12.41338
37837.77963	   3.00000	3070.98270	   0.39970	   0.09468	   0.41076	 -13.32691
37838.01863	   3.00000	2430.77780	   0.41422	   0.10237	   0.42669	 -13.88124
37838.25663	   3.00000	1923.15370	   0.43081	   0.11354	   0.44552	 -14.76509
37838.49463	   3.00000	1522.43580	   0.44722	   0.12172	   0.46348	 -15.22526
37838.73263	   3.00000	1203.84460	   0.46527	   0.13095	   0.48334	 -15.71980
37838.97163	   3.00000	 952.86591	   0.48579	   0.13917	   0.50533	 -15.98600
37839.20963	   3.00000	 754.27557	   0.50734	   0.15011	   0.52908	 -16.48184
37839.44663	   3.00000	 596.71857	   0.52882	   0.15769	   0.55183	 -16.60375
37839.68463	   3.00000	 471.96338	   0.55401	   0.16935	   0.57932	 -16.99782
37839.92363	   3.00000	 373.20856	   0.58026	   0.17970	   0.60745	 -17.20682
37840.16063	   3.00000	 295.47278	   0.60555	   0.19002	   0.63467	 -17.42162
37840.40063	   3.00000	 233.87738	   0.63420	   0.19951	   0.66484	 -17.46310
37840.63863	   3.00000	 185.05922	   0.66352	   0.20950	   0.69580	 -17.52278
37840.87463	   3.00000	 146.35823	   0.70017	   0.22255	   0.73468	 -17.63305
37841.11063	   3.00000	 115.77804	   0.73420	   0.23301	   0.77028	 -17.60747
37841.34463	   3.00000	  91.67210	   0.77019	   0.24347	   0.80776	 -17.54270
37841.59063	   3.00000	  72.51701	   0.80877	   0.25260	   0.84730	 -17.34495
37841.81963	   3.00000	  57.36816	   0.84811	   0.26272	   0.88787	 -17.21142
37842.05663	   3.00000	  45.36290	   0.89066	   0.26993	   0.93066	 -16.86030
37842.28863	   3.00000	  35.93134	   0.92693	   0.27393	   0.96656	 -16.46387
37842.53863	   3.00000	  28.40909	   0.97223	   0.28533	   1.01323	 -16.35572
37842.75263	   3.00000	  22.48202	   1.01151	   0.29249	   1.05295	 -16.12776
37843.01763	   3.00000	  17.79613	   1.04928	   0.30285	   1.09211	 -16.09948
37843.27063	   3.00000	  14.06813	   1.08918	   0.32921	   1.13784	 -16.81771
37843.48563	   3.00000	  11.14480	   1.14341	   0.33352	   1.19106	 -16.26158
37843.75363	   3.00000	   8.81772	   1.19862	   0.37315	   1.25536	 -17.29220
37843.93163	   3.00000	   6.97545	   1.24652	   0.37842	   1.30269	 -16.88737
37844.14963	   3.00000	   5.51730	   1.31419	   0.38248	   1.36872	 -16.22723
37844.41863	   3.00000	   4.36941	   1.41769	   0.38368	   1.46869	 -15.14348
37844.75363	   3.00000	   3.45686	   1.50373	   0.41993	   1.56126	 -15.60289
37845.17263	   3.00000	   2.73547	   1.55486	   0.42219	   1.61115	 -15.19117
37845.69763	   3.00000	   2.16054	   1.59952	   0.38937	   1.64623	 -13.68120
37846.35663	   3.00000	   1.70952	   1.64618	   0.32808	   1.67855	 -11.27107
37847.18563	   3.00000	   1.35352	   1.70922	   0.25014	   1.72743	  -8.32612
37848.22863	   3.00000	   1.07079	   1.79636	   0.18774	   1.80614	  -5.96636
37849.54163	   3.00000	   0.84734	   1.88402	   0.16976	   1.89166	  -5.14879
37851.19763	   3.00000	   0.67072	   1.94226	   0.18827	   1.95136	  -5.53644
37853.28663	   3.00000	   0.53067	   1.95152	   0.24529	   1.96687	  -7.16401
37855.92263	   3.00000	   0.41976	   1.89347	   0.29119	   1.91573	  -8.74283
37859.25463	   3.00000	   0.33183	   1.79598	   0.28081	   1.81780	  -8.88646
37863.45963	   3.00000	   0.26261	   1.70838	   0.19897	   1.71993	  -6.64319
37868.76863	   3.00000	   0.20791	   1.68257	   0.06784	   1.68394	  -2.30884
37875.47263	   3.00000	   0.16452	   1.74802	  -0.05888	   1.74901	   1.92923
37883.94863	   3.00000	   0.13007	   1.88588	  -0.11800	   1.88957	   3.58025
37894.63963	   3.00000	   0.10309	   2.04555	  -0.07313	   2.04686	   2.04762
37908.15263	   3.00000	   0.08153	   2.15651	   0.07222	   2.15772	  -1.91795
37925.25063	   3.00000	   0.06443	   2.17583	   0.24719	   2.18983	  -6.48134
37946.83663	   3.00000	   0.05102	   2.07992	   0.42878	   2.12365	 -11.64861
37974.07964	   3.00000	   0.04042	   1.90447	   0.51776	   1.97360	 -15.20922
38008.57464	   3.00000	   0.03192	   1.73079	   0.47990	   1.79609	 -15.49715
38052.12164	   3.00000	   0.02528	   1.63332	   0.34441	   1.66924	 -11.90730
38107.18664	   3.00000	   0.01999	   1.65400	   0.15896	   1.66162	  -5.48950
52579.33970	   4.00000	20004.45300	   0.30673	  -0.01208	   0.30697	   2.25468
52579.48270	   4.00000	15829.12600	   0.31610	   0.00810	   0.31620	  -1.46787
52579.62470	   4.00000	12516.70300	   0.32580	   0.02703	   0.32692	  -4.74244
52579.76670	   4.00000	9909.44240	   0.33464	   0.03982	   0.33700	  -6.78564
52579.93070	   4.00000	7835.48000	   0.34623	   0.05233	   0.35016	  -8.59473
52580.13170	   4.00000	6217.24610	   0.35985	   0.06355	   0.36541	 -10.01512
52580.36970	   4.00000	4905.29100	   0.37063	   0.07613	   0.37837	 -11.60745
52580.60770	   4.00000	3881.27370	   0.38194	   0.08339	   0.39094	 -12.31609
52580.84570	   4.00000	3070.98270	   0.39743	   0.09433	   0.40847	 -13.35148
52581.08470	   4.00000	2430.77780	   0.41469	   0.10262	   0.42720	 -13.89859
52581.32270	   4.00000	1923.15370	   0.42913	   0.11210	   0.44353	 -14.63958
52581.56070	   4.00000	1522.43580	   0.44743	   0.12139	   0.46361	 -15.17924
52581.79870	   4.00000	1203.84460	   0.46811	   0.13153	   0.48624	 -15.69420
52582.03670	   4.00000	 952.86591	   0.48736	   0.14038	   0.50717	 -16.06844
52582.27570	   4.00000	 754.27557	   0.50919	   0.15189	   0.53137	 -16.60948
52582.51270	   4.00000	 596.71857	   0.52959	   0.15905	   0.55296	 -16.71646
52582.74970	   4.00000	 471.96338	   0.55462	   0.16804	   0.57951	 -16.85602
52582.98870	   4.00000	 373.20856	   0.58094	   0.17860	   0.60777	 -17.08886
52583.22670	   4.00000	 295.47278	   0.60877	   0.18955	   0.63759	 -17.29472
52583.46571	   4.00000	 233.87738	   0.63699	   0.20166	   0.66815	 -17.56714
52583.70371	   4.00000	 185.05922	   0.66738	   0.21213	   0.70028	 -17.63310
52583.93971	   4.00000	 146.35823	   0.70048	   0.22289	   0.73509	 -17.65101
52584.17671	   4.00000	 115.77804	   0.73622	   0.23504	   0.77283	 -17.70593
52584.41071	   4.00000	  91.67210	   0.77031	   0.24470	   0.80824	 -17.62313
52584.65571	   4.00000	  72.51701	   0.81052	   0.25192	   0.84876	 -17.26622
52584.88571	   4.00000	  57.36816	   0.85198	   0.26319	   0.89170	 -17.16666
52585.12171	   4.00000	  45.36290	   0.89272	   0.26898	   0.93237	 -16.76774
52585.35371	   4.00000	  35.93134	   0.92908	   0.27817	   0.96983	 -16.66766
52585.60471	   4.00000	  28.40909	   0.97052	   0.28127	   1.01046	 -16.16239
52585.81871	   4.00000	  22.48202	   1.00918	   0.29195	   1.05056	 -16.13474
52586.08371	   4.00000	  17.79613	   1.04576	   0.31031	   1.09083	 -16.52698
52586.33571	   4.00000	  14.06813	   1.10449	   0.32484	   1.15127	 -16.38915
52586.55171	   4.00000	  11.14480	   1.13719	   0.33755	   1.18623	 -16.53249
52586.81871	   4.00000	   8.81772	   1.20643	   0.35415	   1.25734	 -16.35963
52586.99771	   4.00000	   6.97545	   1.26809	   0.39522	   1.32825	 -17.31060
52587.21571	   4.00000	   5.51730	   1.31603	   0.39353	   1.37361	 -16.64792
52587.48471	   4.00000	   4.36941	   1.38768	   0.39146	   1.44183	 -15.75365
52587.81971	   4.00000	   3.45686	   1.48590	   0.36995	   1.53126	 -13.98102
52588.23871	   4.00000	   2.73547	   1.59321	   0.37598	   1.63698	 -13.27824
52588.76371	   4.00000	   2.16054	   1.65951	   0.38804	   1.70427	 -13.16085
52589.42271	   4.00000	   1.70952	   1.69009	   0.37667	   1.73156	 -12.56428
52590.25171	   4.00000	   1.35352	   1.70050	   0.33207	   1.73262	 -11.04951
52591.29471	   4.00000	   1.07079	   1.71033	   0.25596	   1.72938	  -8.51130
52592.60771	   4.00000	   0.84734	   1.74620	   0.16462	   1.75394	  -5.38567
52594.26371	   4.00000	   0.67072	   1.81155	   0.09203	   1.81389	  -2.90823
52596.35271	   4.00000	   0.53067	   1.90594	   0.06094	   1.90691	  -1.83136
52598.98871	   4.00000	   0.41976	   1.99084	   0.09762	   1.99323	  -2.80721
52602.32071	   4.00000	   0.33183	   2.01922	   0.18698	   2.02786	  -5.29062
52606.52671	   4.00000	   0.26261	   1.96741	   0.28176	   1.98748	  -8.15007
52611.83471	   4.00000	   0.20791	   1.85052	   0.32391	   1.87865	  -9.92828
52618.53871	   4.00000	   0.16452	   1.71913	   0.27921	   1.74166	  -9.22512
52627.01571	   4.00000	   0.13007	   1.64256	   0.15925	   1.65026	  -5.53755
52637.70571	   4.00000	   0.10309	   1.66357	   0.01327	   1.66363	  -0.45710
52651.21971	   4.00000	   0.08153	   1.78107	  -0.08856	   1.78327	   2.84652
52668.31671	   4.00000	   0.06443	   1.92712	  -0.09680	   1.92955	   2.87561
52689.90371	   4.00000	   0.05102	   2.09812	  -0.00478	   2.09812	   0.13043
52717.14571	   4.00000	   0.04042	   2.20147	   0.18046	   2.20885	  -4.68629
52751.64071	   4.00000	   0.03192	   2.19050	   0.40584	   2.22778	 -10.49643
52795.18872	   4.00000	   0.02528	   2.06801	   0.59147	   2.15093	 -15.96113
52850.25372	   4.00000	   0.01999	   1.86840	   0.67485	   1.98654	 -19.85921
67177.14013	   5.00000	20004.45300	   0.30664	  -0.01186	   0.30687	   2.21478
67177.28313	   5.00000	15829.12600	   0.31778	   0.00924	   0.31791	  -1.66529
67177.42513	   5.00000	12516.70300	   0.32693	   0.02479	   0.32787	  -4.33715
67177.56713	   5.00000	9909.44240	   0.33546	   0.04025	   0.33787	  -6.84139
67177.73113	   5.00000	7835.48000	   0.34599	   0.05333	   0.35007	  -8.76218
67177.93213	   5.00000	6217.24610	   0.35830	   0.06409	   0.36399	 -10.14143
67178.17013	   5.00000	4905.29100	   0.37138	   0.07395	   0.37868	 -11.26213
67178.40813	   5.00000	3881.27370	   0.38548	   0.08429	   0.39458	 -12.33482
67178.64613	   5.00000	3070.98270	   0.39912	   0.09511	   0.41030	 -13.40382
67178.88413	   5.00000	2430.77780	   0.41429	   0.10518	   0.42743	 -14.24504
67179.12313	   5.00000	1923.15370	   0.43159	   0.11381	   0.44635	 -14.77186
67179.36113	   5.00000	1522.43580	   0.44828	   0.12233	   0.46467	 -15.26327
67179.59913	   5.00000	1203.84460	   0.46635	   0.13121	   0.48446	 -15.71426
67179.83713	   5.00000	 952.86591	   0.48725	   0.13961	   0.50685	 -15.98845
67180.07613	   5.00000	 754.27557	   0.50945	   0.15000	   0.53108	 -16.40657
