time/s	           cycle number	freq/Hz	           Re(Z)/Ohm	  -Im(Z)/Ohm	   |Z|/Ohm	   Phase(Z)/deg
13841.71118	   1.00000	20004.45300	   0.29643	  -0.01761	   0.29695	   3.40023
13841.85318	   1.00000	15829.12600	   0.30391	  -0.00063	   0.30391	   0.11902
13841.99518	   1.00000	12516.70300	   0.31181	   0.01784	   0.31232	  -3.27503
13842.13718	   1.00000	9909.44240	   0.32172	   0.03261	   0.32337	  -5.78755
13842.30118	   1.00000	7835.48000	   0.33242	   0.04572	   0.33555	  -7.83144
13842.50118	   1.00000	6217.24610	   0.34144	   0.05524	   0.34588	  -9.19015
13842.74018	   1.00000	4905.29100	   0.35358	   0.06745	   0.35995	 -10.79983
13842.97818	   1.00000	3881.27370	   0.36647	   0.07701	   0.37448	 -11.86816
13843.21618	   1.00000	3070.98270	   0.37751	   0.08622	   0.38723	 -12.86504
13843.45418	   1.00000	2430.77780	   0.39322	   0.09473	   0.40447	 -13.54468
13843.69218	   1.00000	1923.15370	   0.40808	   0.10502	   0.42138	 -14.43224
13843.93018	   1.00000	1522.43580	   0.42542	   0.11434	   0.44052	 -15.04402
13844.16818	   1.00000	1203.84460	   0.44193	   0.12412	   0.45903	 -15.68776
13844.40718	   1.00000	 952.86591	   0.46160	   0.13218	   0.48015	 -15.97943
13844.64518	   1.00000	 754.27557	   0.48105	   0.14211	   0.50161	 -16.45828
13844.88318	   1.00000	 596.71857	   0.50161	   0.15019	   0.52361	 -16.66845
13845.12018	   1.00000	 471.96338	   0.52621	   0.16184	   0.55054	 -17.09562
13845.35918	   1.00000	 373.20856	   0.54916	   0.17197	   0.57545	 -17.38817
13845.59718	   1.00000	 295.47278	   0.57508	   0.18262	   0.60338	 -17.61769
13845.83618	   1.00000	 233.87738	   0.60099	   0.19467	   0.63173	 -17.94841
13846.07418	   1.00000	 185.05922	   0.63080	   0.20720	   0.66396	 -18.18438
13846.31018	   1.00000	 146.35823	   0.66145	   0.21875	   0.69668	 -18.30017
13846.54718	   1.00000	 115.77804	   0.69695	   0.23202	   0.73455	 -18.41336
13846.78118	   1.00000	  91.67210	   0.73055	   0.24256	   0.76976	 -18.36763
13847.02618	   1.00000	  72.51701	   0.76762	   0.25396	   0.80854	 -18.30612
13847.25618	   1.00000	  57.36816	   0.80479	   0.26528	   0.84738	 -18.24353
13847.49218	   1.00000	  45.36290	   0.84419	   0.27768	   0.88869	 -18.20783
13847.72518	   1.00000	  35.93134	   0.88256	   0.29072	   0.92921	 -18.23184
13847.97518	   1.00000	  28.40909	   0.92408	   0.30485	   0.97306	 -18.25740
13848.18918	   1.00000	  22.48202	   0.96776	   0.32230	   1.02001	 -18.41973
13848.45418	   1.00000	  17.79613	   1.01300	   0.34321	   1.06956	 -18.71649
13848.70618	   1.00000	  14.06813	   1.06729	   0.36286	   1.12729	 -18.77700
13848.92218	   1.00000	  11.14480	   1.12030	   0.38584	   1.18488	 -19.00394
13849.18918	   1.00000	   8.81772	   1.18623	   0.40557	   1.25365	 -18.87557
13849.36818	   1.00000	   6.97545	   1.27036	   0.42760	   1.34039	 -18.60317
13849.58618	   1.00000	   5.51730	   1.33308	   0.43574	   1.40249	 -18.10095
13849.85518	   1.00000	   4.36941	   1.42234	   0.44113	   1.48918	 -17.23106
13850.19018	   1.00000	   3.45686	   1.50001	   0.43025	   1.56050	 -16.00467
13850.60918	   1.00000	   2.73547	   1.59021	   0.40873	   1.64190	 -14.41455
13851.13418	   1.00000	   2.16054	   1.67206	   0.39385	   1.71782	 -13.25421
13851.79318	   1.00000	   1.70952	   1.72731	   0.37586	   1.76773	 -12.27619
13852.62218	   1.00000	   1.35352	   1.76680	   0.34871	   1.80088	 -11.16487
13853.66518	   1.00000	   1.07079	   1.79604	   0.31623	   1.82367	  -9.98583
13854.97818	   1.00000	   0.84734	   1.82095	   0.27895	   1.84220	  -8.70944
13856.63418	   1.00000	   0.67072	   1.84978	   0.24378	   1.86577	  -7.50763
13858.72218	   1.00000	   0.53067	   1.89175	   0.21280	   1.90368	  -6.41823
13861.35918	   1.00000	   0.41976	   1.94999	   0.20811	   1.96107	  -6.09181
13864.69018	   1.00000	   0.33183	   2.01351	   0.24082	   2.02786	  -6.82041
13868.89618	   1.00000	   0.26261	   2.05855	   0.31490	   2.08249	  -8.69716
13874.20418	   1.00000	   0.20791	   2.05975	   0.41441	   2.10102	 -11.37563
13880.90818	   1.00000	   0.16452	   2.01445	   0.49704	   2.07486	 -13.86007
13889.38519	   1.00000	   0.13007	   1.95029	   0.52989	   2.02100	 -15.20027
13900.07519	   1.00000	   0.10309	   1.91057	   0.49661	   1.97406	 -14.57044
13913.58919	   1.00000	   0.08153	   1.95680	   0.40070	   1.99741	 -11.57272
13930.68619	   1.00000	   0.06443	   2.12231	   0.30329	   2.14387	  -8.13280
13952.27319	   1.00000	   0.05102	   2.50183	   0.22567	   2.51198	  -5.15421
13979.51519	   1.00000	   0.04042	   3.08851	   0.37483	   3.11117	  -6.91983
14014.01119	   1.00000	   0.03192	   3.72765	   0.91612	   3.83858	 -13.80753
14057.55819	   1.00000	   0.02528	   4.15040	   1.88493	   4.55837	 -24.42543
14112.62320	   1.00000	   0.01999	   4.06261	   3.18676	   5.16336	 -38.11102
29765.98050	   2.00000	20004.45300	   0.30312	  -0.01723	   0.30361	   3.25278
29766.12250	   2.00000	15829.12600	   0.31108	   0.00272	   0.31109	  -0.50171
29766.26450	   2.00000	12516.70300	   0.31851	   0.01951	   0.31911	  -3.50507
29766.40650	   2.00000	9909.44240	   0.32733	   0.03224	   0.32892	  -5.62566
29766.57150	   2.00000	7835.48000	   0.33635	   0.04634	   0.33953	  -7.84496
29766.77150	   2.00000	6217.24610	   0.34613	   0.05833	   0.35101	  -9.56574
29767.00950	   2.00000	4905.29100	   0.35911	   0.06826	   0.36554	 -10.76303
29767.24850	   2.00000	3881.27370	   0.37242	   0.07751	   0.38040	 -11.75686
29767.48650	   2.00000	3070.98270	   0.38708	   0.08691	   0.39672	 -12.65443
29767.72450	   2.00000	2430.77780	   0.39925	   0.09680	   0.41082	 -13.62844
29767.96250	   2.00000	1923.15370	   0.41551	   0.10546	   0.42868	 -14.24156
29768.20050	   2.00000	1522.43580	   0.43113	   0.11583	   0.44642	 -15.03817
29768.43850	   2.00000	1203.84460	   0.44912	   0.12301	   0.46566	 -15.31665
29768.67750	   2.00000	 952.86591	   0.46795	   0.13583	   0.48727	 -16.18603
29768.91550	   2.00000	 754.27557	   0.48654	   0.14249	   0.50698	 -16.32381
29769.15350	   2.00000	 596.71857	   0.50938	   0.15274	   0.53178	 -16.69138
29769.39050	   2.00000	 471.96338	   0.53256	   0.16343	   0.55707	 -17.06036
29769.62950	   2.00000	 373.20856	   0.55698	   0.17301	   0.58323	 -17.25632
29769.86750	   2.00000	 295.47278	   0.58130	   0.18454	   0.60989	 -17.61237
29770.10650	   2.00000	 233.87738	   0.60812	   0.19632	   0.63902	 -17.89197
29770.34450	   2.00000	 185.05922	   0.63833	   0.20827	   0.67145	 -18.07054
29770.58050	   2.00000	 146.35823	   0.67088	   0.22167	   0.70656	 -18.28449
29770.81750	   2.00000	 115.77804	   0.70349	   0.23352	   0.74124	 -18.36329
29771.05150	   2.00000	  91.67210	   0.73862	   0.24619	   0.77857	 -18.43409
29771.29650	   2.00000	  72.51701	   0.77424	   0.25874	   0.81633	 -18.47905
29771.52650	   2.00000	  57.36816	   0.81436	   0.27160	   0.85846	 -18.44427
29771.76250	   2.00000	  45.36290	   0.85376	   0.28483	   0.90002	 -18.44988
29771.99550	   2.00000	  35.93134	   0.89427	   0.29926	   0.94302	 -18.50211
29772.24550	   2.00000	  28.40909	   0.93458	   0.31674	   0.98679	 -18.72186
29772.45950	   2.00000	  22.48202	   0.97883	   0.33485	   1.03452	 -18.88533
29772.72450	   2.00000	  17.79613	   1.02970	   0.35728	   1.08992	 -19.13553
29772.97650	   2.00000	  14.06813	   1.08166	   0.37932	   1.14624	 -19.32514
29773.19250	   2.00000	  11.14480	   1.13731	   0.40622	   1.20768	 -19.65536
29773.46050	   2.00000	   8.81772	   1.20551	   0.43026	   1.27999	 -19.64228
29773.63850	   2.00000	   6.97545	   1.28901	   0.44541	   1.36379	 -19.06212
29773.85650	   2.00000	   5.51730	   1.36195	   0.47732	   1.44317	 -19.31388
29774.12550	   2.00000	   4.36941	   1.45193	   0.47181	   1.52666	 -18.00174
29774.46050	   2.00000	   3.45686	   1.54116	   0.47379	   1.61234	 -17.08868
29774.87950	   2.00000	   2.73547	   1.62677	   0.45052	   1.68800	 -15.47960
29775.40450	   2.00000	   2.16054	   1.72119	   0.42496	   1.77288	 -13.86881
29776.06350	   2.00000	   1.70952	   1.79978	   0.40819	   1.84549	 -12.77844
29776.89250	   2.00000	   1.35352	   1.85049	   0.39117	   1.89138	 -11.93573
29777.93550	   2.00000	   1.07079	   1.88228	   0.36826	   1.91797	 -11.06984
29779.24850	   2.00000	   0.84734	   1.90289	   0.33933	   1.93291	 -10.11087
29780.90450	   2.00000	   0.67072	   1.92265	   0.30695	   1.94699	  -9.07066
29782.99350	   2.00000	   0.53067	   1.95223	   0.27146	   1.97101	  -7.91633
29785.63050	   2.00000	   0.41976	   2.00317	   0.24713	   2.01836	  -7.03312
29788.96150	   2.00000	   0.33183	   2.07934	   0.25023	   2.09435	  -6.86214
29793.16750	   2.00000	   0.26261	   2.16866	   0.30429	   2.18991	  -7.98720
29798.47550	   2.00000	   0.20791	   2.23863	   0.41974	   2.27764	 -10.61965
29805.17950	   2.00000	   0.16452	   2.25142	   0.57029	   2.32252	 -14.21426
29813.65650	   2.00000	   0.13007	   2.20215	   0.70410	   2.31198	 -17.73089
29824.34650	   2.00000	   0.10309	   2.12422	   0.76615	   2.25817	 -19.83303
29837.86050	   2.00000	   0.08153	   2.07384	   0.73362	   2.19978	 -19.48116
29854.95750	   2.00000	   0.06443	   2.12221	   0.63539	   2.21529	 -16.66767
29876.54450	   2.00000	   0.05102	   2.36292	   0.43327	   2.40231	 -10.39054
29903.78650	   2.00000	   0.04042	   2.93678	   0.27288	   2.94943	  -5.30864
29938.28250	   2.00000	   0.03192	   3.87623	   0.42628	   3.89960	  -6.27577
29981.82951	   2.00000	   0.02528	   5.01464	   1.20141	   5.15655	 -13.47301
30036.89551	   2.00000	   0.01999	   6.01110	   2.86488	   6.65889	 -25.48237
45446.43575	   3.00000	20004.45300	   0.30682	  -0.01697	   0.30729	   3.16484
45446.57775	   3.00000	15829.12600	   0.31337	   0.00261	   0.31338	  -0.47659
45446.71975	   3.00000	12516.70300	   0.32182	   0.01934	   0.32240	  -3.43847
45446.86175	   3.00000	9909.44240	   0.33091	   0.03325	   0.33257	  -5.73810
45447.02675	   3.00000	7835.48000	   0.33996	   0.04484	   0.34290	  -7.51311
45447.22675	   3.00000	6217.24610	   0.35266	   0.05786	   0.35737	  -9.31814
45447.46575	   3.00000	4905.29100	   0.36291	   0.06777	   0.36918	 -10.57697
45447.70375	   3.00000	3881.27370	   0.37548	   0.07829	   0.38356	 -11.77703
45447.94175	   3.00000	3070.98270	   0.38907	   0.08735	   0.39875	 -12.65338
45448.17975	   3.00000	2430.77780	   0.40205	   0.09652	   0.41347	 -13.49983
45448.41775	   3.00000	1923.15370	   0.41864	   0.10460	   0.43151	 -14.02804
45448.65575	   3.00000	1522.43580	   0.43448	   0.11358	   0.44909	 -14.65025
45448.89475	   3.00000	1203.84460	   0.45322	   0.12479	   0.47008	 -15.39488
45449.13275	   3.00000	 952.86591	   0.46937	   0.13378	   0.48806	 -15.90875
45449.37075	   3.00000	 754.27557	   0.49092	   0.14265	   0.51122	 -16.20284
45449.60875	   3.00000	 596.71857	   0.51354	   0.15344	   0.53597	 -16.63534
45449.84575	   3.00000	 471.96338	   0.53542	   0.16263	   0.55957	 -16.89569
45450.08475	   3.00000	 373.20856	   0.56014	   0.17468	   0.58674	 -17.32027
45450.32275	   3.00000	 295.47278	   0.58524	   0.18475	   0.61371	 -17.52028
45450.56175	   3.00000	 233.87738	   0.61488	   0.19797	   0.64597	 -17.84699
45450.79975	   3.00000	 185.05922	   0.64380	   0.20931	   0.67697	 -18.01060
45451.03575	   3.00000	 146.35823	   0.67279	   0.22297	   0.70877	 -18.33584
45451.27275	   3.00000	 115.77804	   0.70794	   0.23491	   0.74590	 -18.35681
45451.50675	   3.00000	  91.67210	   0.74270	   0.24913	   0.78337	 -18.54340
45451.75275	   3.00000	  72.51701	   0.78012	   0.25969	   0.82221	 -18.41193
45451.98175	   3.00000	  57.36816	   0.81966	   0.27463	   0.86444	 -18.52364
45452.21775	   3.00000	  45.36290	   0.85890	   0.28803	   0.90591	 -18.53877
45452.45075	   3.00000	  35.93134	   0.89812	   0.30297	   0.94784	 -18.64114
45452.70075	   3.00000	  28.40909	   0.94167	   0.31978	   0.99448	 -18.75712
45452.91575	   3.00000	  22.48202	   0.98645	   0.34199	   1.04405	 -19.12078
45453.17975	   3.00000	  17.79613	   1.03424	   0.36075	   1.09536	 -19.22928
45453.43275	   3.00000	  14.06813	   1.08650	   0.38573	   1.15294	 -19.54593
45453.64875	   3.00000	  11.14480	   1.15091	   0.41791	   1.22444	 -19.95668
45453.91575	   3.00000	   8.81772	   1.21366	   0.44186	   1.29159	 -20.00489
45454.09375	   3.00000	   6.97545	   1.28903	   0.46440	   1.37013	 -19.81268
45454.31175	   3.00000	   5.51730	   1.39089	   0.48844	   1.47416	 -19.34961
45454.58175	   3.00000	   4.36941	   1.46374	   0.50355	   1.54793	 -18.98402
45454.91675	   3.00000	   3.45686	   1.56012	   0.49369	   1.63637	 -17.55955
45455.33475	   3.00000	   2.73547	   1.64971	   0.48350	   1.71911	 -16.33485
45455.85975	   3.00000	   2.16054	   1.73502	   0.44827	   1.79200	 -14.48654
45456.51975	   3.00000	   1.70952	   1.82467	   0.41620	   1.87154	 -12.84911
45457.34775	   3.00000	   1.35352	   1.89963	   0.39799	   1.94088	 -11.83297
45458.39075	   3.00000	   1.07079	   1.94891	   0.38888	   1.98733	 -11.28437
45459.70475	   3.00000	   0.84734	   1.97462	   0.38085	   2.01101	 -10.91687
45461.35975	   3.00000	   0.67072	   1.98657	   0.37138	   2.02098	 -10.58890
45463.44875	   3.00000	   0.53067	   1.99137	   0.34705	   2.02138	  -9.88602
45466.08575	   3.00000	   0.41976	   2.01111	   0.31713	   2.03596	  -8.96126
45469.41675	   3.00000	   0.33183	   2.05885	   0.29071	   2.07927	  -8.03714
45473.62275	   3.00000	   0.26261	   2.14601	   0.28444	   2.16477	  -7.55012
45478.93075	   3.00000	   0.20791	   2.27305	   0.33293	   2.29730	  -8.33276
45485.63475	   3.00000	   0.16452	   2.40985	   0.46398	   2.45411	 -10.89819
45494.11175	   3.00000	   0.13007	   2.49913	   0.67946	   2.58985	 -15.20983
45504.80175	   3.00000	   0.10309	   2.49265	   0.91721	   2.65605	 -20.20184
45518.31576	   3.00000	   0.08153	   2.39991	   1.09861	   2.63942	 -24.59696
45535.41276	   3.00000	   0.06443	   2.30343	   1.18427	   2.59004	 -27.20921
45556.99976	   3.00000	   0.05102	   2.23588	   1.05799	   2.47356	 -25.32278
45584.24176	   3.00000	   0.04042	   2.38344	   0.73490	   2.49416	 -17.13636
45618.73776	   3.00000	   0.03192	   2.98993	   0.28940	   3.00391	  -5.52854
45662.28476	   3.00000	   0.02528	   4.32550	   0.02398	   4.32557	  -0.31770
45717.35077	   3.00000	   0.01999	   6.60065	   0.55477	   6.62392	  -4.80426
60974.98023	   4.00000	20004.45300	   0.30780	  -0.01771	   0.30831	   3.29338
60975.12223	   4.00000	15829.12600	   0.31411	   0.00411	   0.31414	  -0.74964
60975.26423	   4.00000	12516.70300	   0.32221	   0.01905	   0.32278	  -3.38416
60975.40623	   4.00000	9909.44240	   0.33148	   0.03366	   0.33319	  -5.79875
60975.57123	   4.00000	7835.48000	   0.34245	   0.04578	   0.34550	  -7.61479
60975.77123	   4.00000	6217.24610	   0.35200	   0.05735	   0.35664	  -9.25350
60976.01023	   4.00000	4905.29100	   0.36401	   0.06829	   0.37036	 -10.62623
60976.24823	   4.00000	3881.27370	   0.37637	   0.07769	   0.38431	 -11.66289
60976.48623	   4.00000	3070.98270	   0.39069	   0.08719	   0.40030	 -12.58119
60976.72423	   4.00000	2430.77780	   0.40465	   0.09647	   0.41599	 -13.40856
60976.96223	   4.00000	1923.15370	   0.41936	   0.10598	   0.43255	 -14.18289
60977.20023	   4.00000	1522.43580	   0.43623	   0.11522	   0.45119	 -14.79603
60977.43823	   4.00000	1203.84460	   0.45488	   0.12449	   0.47161	 -15.30509
60977.67723	   4.00000	 952.86591	   0.47368	   0.13444	   0.49239	 -15.84467
60977.91523	   4.00000	 754.27557	   0.49377	   0.14343	   0.51418	 -16.19785
60978.15323	   4.00000	 596.71857	   0.51633	   0.15324	   0.53859	 -16.53006
60978.39023	   4.00000	 471.96338	   0.53847	   0.16369	   0.56280	 -16.90925
60978.62923	   4.00000	 373.20856	   0.56214	   0.17329	   0.58824	 -17.13287
60978.86723	   4.00000	 295.47278	   0.58731	   0.18609	   0.61609	 -17.58075
60979.10623	   4.00000	 233.87738	   0.61595	   0.19792	   0.64697	 -17.81367
60979.34423	   4.00000	 185.05922	   0.64568	   0.20929	   0.67875	 -17.95950
60979.58023	   4.00000	 146.35823	   0.67603	   0.22239	   0.71167	 -18.20977
60979.81723	   4.00000	 115.77804	   0.70931	   0.23597	   0.74753	 -18.40116
60980.05123	   4.00000	  91.67210	   0.74539	   0.24942	   0.78601	 -18.50127
60980.29723	   4.00000	  72.51701	   0.78122	   0.26252	   0.82415	 -18.57460
60980.52623	   4.00000	  57.36816	   0.82269	   0.27666	   0.86796	 -18.58697
60980.76223	   4.00000	  45.36290	   0.86274	   0.28977	   0.91010	 -18.56581
60980.99523	   4.00000	  35.93134	   0.90088	   0.30588	   0.95139	 -18.75396
60981.24523	   4.00000	  28.40909	   0.94428	   0.32323	   0.99807	 -18.89596
60981.45923	   4.00000	  22.48202	   0.98808	   0.34297	   1.04591	 -19.14225
60981.72423	   4.00000	  17.79613	   1.03668	   0.36832	   1.10016	 -19.55961
60981.97623	   4.00000	  14.06813	   1.09271	   0.39274	   1.16115	 -19.76915
60982.19223	   4.00000	  11.14480	   1.15056	   0.42197	   1.22550	 -20.14047
60982.46023	   4.00000	   8.81772	   1.22162	   0.44868	   1.30141	 -20.16751
60982.63823	   4.00000	   6.97545	   1.31402	   0.47936	   1.39873	 -20.04216
60982.85623	   4.00000	   5.51730	   1.38075	   0.49583	   1.46707	 -19.75336
60983.12523	   4.00000	   4.36941	   1.48176	   0.50847	   1.56657	 -18.93999
60983.46023	   4.00000	   3.45686	   1.57020	   0.50623	   1.64979	 -17.86930
60983.87923	   4.00000	   2.73547	   1.67736	   0.48620	   1.74641	 -16.16469
60984.40423	   4.00000	   2.16054	   1.77758	   0.47666	   1.84038	 -15.01072
60985.06323	   4.00000	   1.70952	   1.84744	   0.46216	   1.90437	 -14.04497
60985.89223	   4.00000	   1.35352	   1.89752	   0.43682	   1.94715	 -12.96403
60986.93423	   4.00000	   1.07079	   1.93557	   0.40358	   1.97720	 -11.77792
60988.24823	   4.00000	   0.84734	   1.96891	   0.36411	   2.00229	 -10.47722
60989.90423	   4.00000	   0.67072	   2.00775	   0.32809	   2.03439	  -9.28083
60991.99323	   4.00000	   0.53067	   2.06072	   0.29885	   2.08228	  -8.25174
60994.62923	   4.00000	   0.41976	   2.13574	   0.29776	   2.15640	  -7.93694
60997.96123	   4.00000	   0.33183	   2.22088	   0.34651	   2.24775	  -8.86794
61002.16623	   4.00000	   0.26261	   2.28497	   0.45135	   2.32912	 -11.17378
61007.47523	   4.00000	   0.20791	   2.29928	   0.58815	   2.37331	 -14.34842
61014.17923	   4.00000	   0.16452	   2.25688	   0.70409	   2.36416	 -17.32666
61022.65523	   4.00000	   0.13007	   2.19766	   0.75907	   2.32506	 -19.05489
61033.34623	   4.00000	   0.10309	   2.17720	   0.73538	   2.29804	 -18.66323
61046.85923	   4.00000	   0.08153	   2.25833	   0.63398	   2.34564	 -15.68108
61063.95723	   4.00000	   0.06443	   2.49581	   0.51982	   2.54937	 -11.76524
61085.54424	   4.00000	   0.05102	   3.01901	   0.41214	   3.04701	  -7.77367
61112.78624	   4.00000	   0.04042	   3.84249	   0.60093	   3.88920	  -8.88847
61147.28224	   4.00000	   0.03192	   4.80588	   1.33136	   4.98689	 -15.48418
61190.82924	   4.00000	   0.02528	   5.53126	   2.73216	   6.16924	 -26.28703
61245.89524	   4.00000	   0.01999	   5.59307	   4.75707	   7.34249	 -40.38216
76400.05552	   5.00000	20004.45300	   0.30830	  -0.01653	   0.30874	   3.06976
76400.19752	   5.00000	15829.12600	   0.31640	   0.00257	   0.31641	  -0.46490
76400.33952	   5.00000	12516.70300	   0.32492	   0.01769	   0.32540	  -3.11674
76400.48152	   5.00000	9909.44240	   0.33412	   0.03211	   0.33566	  -5.48943
76400.64652	   5.00000	7835.48000	   0.34349	   0.04586	   0.34654	  -7.60418
76400.84652	   5.00000	6217.24610	   0.35493	   0.05737	   0.35953	  -9.18163
76401.08552	   5.00000	4905.29100	   0.36586	   0.06878	   0.37227	 -10.64667
76401.32352	   5.00000	3881.27370	   0.37828	   0.07779	   0.38619	 -11.61992
76401.56152	   5.00000	3070.98270	   0.39231	   0.08788	   0.40203	 -12.62621
76401.79952	   5.00000	2430.77780	   0.40682	   0.09587	   0.41796	 -13.26070
76402.03752	   5.00000	1923.15370	   0.42196	   0.10601	   0.43507	 -14.10328
76402.27552	   5.00000	1522.43580	   0.43864	   0.11481	   0.45342	 -14.66729
76402.51352	   5.00000	1203.84460	   0.45475	   0.12356	   0.47124	 -15.20075
76402.75252	   5.00000	 952.86591	   0.47391	   0.13541	   0.49287	 -15.94576
