time/s	           cycle number	freq/Hz	           Re(Z)/Ohm	  -Im(Z)/Ohm	   |Z|/Ohm	   Phase(Z)/deg
15311.67645	   1.00000	20004.45300	   0.29269	  -0.01258	   0.29296	   2.46086
15311.81945	   1.00000	15829.12600	   0.29965	   0.00726	   0.29974	  -1.38709
15311.96145	   1.00000	12516.70300	   0.31052	   0.02539	   0.31156	  -4.67387
15312.10345	   1.00000	9909.44240	   0.32220	   0.04037	   0.32472	  -7.14216
15312.26745	   1.00000	7835.48000	   0.33091	   0.05405	   0.33529	  -9.27739
15312.46845	   1.00000	6217.24610	   0.34420	   0.06616	   0.35050	 -10.88084
15312.70645	   1.00000	4905.29100	   0.35809	   0.07716	   0.36630	 -12.15953
15312.94445	   1.00000	3881.27370	   0.37313	   0.08911	   0.38363	 -13.43117
15313.18245	   1.00000	3070.98270	   0.38851	   0.09731	   0.40051	 -14.06123
15313.42045	   1.00000	2430.77780	   0.40363	   0.10923	   0.41815	 -15.14230
15313.65945	   1.00000	1923.15370	   0.42177	   0.11776	   0.43791	 -15.60042
15313.89745	   1.00000	1522.43580	   0.44015	   0.12869	   0.45858	 -16.29785
15314.13545	   1.00000	1203.84460	   0.46026	   0.13685	   0.48018	 -16.55877
15314.37345	   1.00000	 952.86591	   0.48234	   0.14672	   0.50416	 -16.91914
15314.61245	   1.00000	 754.27557	   0.50203	   0.15693	   0.52599	 -17.35821
15314.84945	   1.00000	 596.71857	   0.52661	   0.16681	   0.55239	 -17.57673
15315.08745	   1.00000	 471.96338	   0.55196	   0.17599	   0.57934	 -17.68431
15315.32645	   1.00000	 373.20856	   0.57658	   0.18668	   0.60605	 -17.94070
15315.56345	   1.00000	 295.47278	   0.60629	   0.19783	   0.63775	 -18.07173
15315.80345	   1.00000	 233.87738	   0.63533	   0.20902	   0.66883	 -18.21114
15316.04145	   1.00000	 185.05922	   0.66656	   0.22260	   0.70274	 -18.46672
15316.27745	   1.00000	 146.35823	   0.70128	   0.23557	   0.73979	 -18.56767
15316.51345	   1.00000	 115.77804	   0.73842	   0.24733	   0.77874	 -18.51833
15316.74845	   1.00000	  91.67210	   0.77709	   0.25789	   0.81876	 -18.35905
15316.99345	   1.00000	  72.51701	   0.81722	   0.26947	   0.86050	 -18.24913
15317.22245	   1.00000	  57.36816	   0.86037	   0.27997	   0.90478	 -18.02521
15317.45945	   1.00000	  45.36290	   0.90312	   0.28883	   0.94818	 -17.73469
15317.69145	   1.00000	  35.93134	   0.94358	   0.29750	   0.98936	 -17.49939
15317.94145	   1.00000	  28.40909	   0.98695	   0.30622	   1.03336	 -17.23768
15318.15645	   1.00000	  22.48202	   1.02652	   0.31634	   1.07416	 -17.12786
15318.42145	   1.00000	  17.79613	   1.06898	   0.33087	   1.11901	 -17.19813
15318.67345	   1.00000	  14.06813	   1.11266	   0.35137	   1.16682	 -17.52575
15318.88945	   1.00000	  11.14480	   1.16327	   0.37593	   1.22250	 -17.90892
15319.15645	   1.00000	   8.81772	   1.21537	   0.40272	   1.28035	 -18.33303
15319.33545	   1.00000	   6.97545	   1.27221	   0.44010	   1.34618	 -19.08229
15319.55345	   1.00000	   5.51730	   1.35925	   0.46755	   1.43741	 -18.98211
15319.82245	   1.00000	   4.36941	   1.42741	   0.50075	   1.51270	 -19.33141
15320.15745	   1.00000	   3.45686	   1.53427	   0.50906	   1.61651	 -18.35545
15320.57645	   1.00000	   2.73547	   1.63983	   0.53104	   1.72367	 -17.94391
15321.10145	   1.00000	   2.16054	   1.73623	   0.52108	   1.81274	 -16.70569
15321.76045	   1.00000	   1.70952	   1.83998	   0.49003	   1.90411	 -14.91305
15322.58845	   1.00000	   1.35352	   1.93386	   0.45683	   1.98708	 -13.29102
15323.63145	   1.00000	   1.07079	   2.00707	   0.41403	   2.04933	 -11.65580
15324.94545	   1.00000	   0.84734	   2.06511	   0.36522	   2.09716	 -10.02914
15326.60145	   1.00000	   0.67072	   2.11321	   0.31985	   2.13728	  -8.60691
15328.69045	   1.00000	   0.53067	   2.15037	   0.27859	   2.16834	  -7.38177
15331.32645	   1.00000	   0.41976	   2.17850	   0.24673	   2.19243	  -6.46171
15334.65845	   1.00000	   0.33183	   2.19946	   0.22116	   2.21055	  -5.74181
15338.86345	   1.00000	   0.26261	   2.21547	   0.20111	   2.22458	  -5.18693
15344.17145	   1.00000	   0.20791	   2.23083	   0.18692	   2.23864	  -4.78955
15350.87645	   1.00000	   0.16452	   2.24522	   0.18019	   2.25244	  -4.58839
15359.35245	   1.00000	   0.13007	   2.25970	   0.18129	   2.26696	  -4.58678
15370.04245	   1.00000	   0.10309	   2.27233	   0.18774	   2.28007	  -4.72318
15383.55645	   1.00000	   0.08153	   2.28716	   0.19866	   2.29577	  -4.96420
15400.65446	   1.00000	   0.06443	   2.30747	   0.21709	   2.31766	  -5.37472
15422.24046	   1.00000	   0.05102	   2.33563	   0.24284	   2.34822	  -5.93586
15449.48346	   1.00000	   0.04042	   2.36410	   0.28342	   2.38103	  -6.83630
15483.97846	   1.00000	   0.03192	   2.38942	   0.32985	   2.41208	  -7.85988
15527.52546	   1.00000	   0.02528	   2.42036	   0.37178	   2.44875	  -8.73263
15582.59046	   1.00000	   0.01999	   2.46950	   0.41546	   2.50421	  -9.54970
30881.28857	   2.00000	20004.45300	   0.29559	  -0.01267	   0.29587	   2.45464
30881.43157	   2.00000	15829.12600	   0.30587	   0.00827	   0.30598	  -1.54964
30881.57357	   2.00000	12516.70300	   0.31444	   0.02576	   0.31549	  -4.68361
30881.71557	   2.00000	9909.44240	   0.32533	   0.04174	   0.32799	  -7.31157
30881.87957	   2.00000	7835.48000	   0.33690	   0.05547	   0.34144	  -9.34993
30882.08057	   2.00000	6217.24610	   0.34931	   0.06899	   0.35606	 -11.17159
30882.31857	   2.00000	4905.29100	   0.36404	   0.07898	   0.37250	 -12.24075
30882.55757	   2.00000	3881.27370	   0.37698	   0.09116	   0.38785	 -13.59455
30882.79557	   2.00000	3070.98270	   0.39344	   0.10041	   0.40605	 -14.31759
30883.03257	   2.00000	2430.77780	   0.40949	   0.11186	   0.42450	 -15.27927
30883.27157	   2.00000	1923.15370	   0.42759	   0.12040	   0.44422	 -15.72600
30883.50957	   2.00000	1522.43580	   0.44800	   0.13010	   0.46651	 -16.19328
30883.74757	   2.00000	1203.84460	   0.46668	   0.14040	   0.48734	 -16.74328
30883.98557	   2.00000	 952.86591	   0.48872	   0.14965	   0.51111	 -17.02470
30884.22457	   2.00000	 754.27557	   0.51135	   0.15843	   0.53533	 -17.21433
30884.46157	   2.00000	 596.71857	   0.53566	   0.16900	   0.56169	 -17.51035
30884.69857	   2.00000	 471.96338	   0.56049	   0.17997	   0.58867	 -17.80142
30884.93857	   2.00000	 373.20856	   0.58833	   0.19043	   0.61838	 -17.93607
30885.17557	   2.00000	 295.47278	   0.61695	   0.19940	   0.64838	 -17.91108
30885.41457	   2.00000	 233.87738	   0.64820	   0.21216	   0.68204	 -18.12355
30885.65357	   2.00000	 185.05922	   0.67750	   0.22423	   0.71364	 -18.31310
30885.88957	   2.00000	 146.35823	   0.71278	   0.23620	   0.75090	 -18.33419
30886.12557	   2.00000	 115.77804	   0.75102	   0.24740	   0.79072	 -18.23314
30886.36057	   2.00000	  91.67210	   0.78887	   0.25982	   0.83056	 -18.22993
30886.60557	   2.00000	  72.51701	   0.82878	   0.27097	   0.87195	 -18.10500
30886.83457	   2.00000	  57.36816	   0.87313	   0.27964	   0.91681	 -17.75898
30887.07157	   2.00000	  45.36290	   0.91383	   0.28819	   0.95819	 -17.50361
30887.30357	   2.00000	  35.93134	   0.95691	   0.29768	   1.00214	 -17.28039
30887.55357	   2.00000	  28.40909	   0.99833	   0.30482	   1.04383	 -16.97886
30887.76857	   2.00000	  22.48202	   1.04166	   0.31760	   1.08900	 -16.95610
30888.03357	   2.00000	  17.79613	   1.08242	   0.33161	   1.13208	 -17.03291
30888.28557	   2.00000	  14.06813	   1.12885	   0.34828	   1.18136	 -17.14621
30888.50157	   2.00000	  11.14480	   1.17669	   0.36903	   1.23320	 -17.41229
30888.76857	   2.00000	   8.81772	   1.22981	   0.39759	   1.29248	 -17.91556
30888.94657	   2.00000	   6.97545	   1.30612	   0.42947	   1.37492	 -18.20171
30889.16557	   2.00000	   5.51730	   1.36778	   0.44342	   1.43786	 -17.96202
30889.43457	   2.00000	   4.36941	   1.46125	   0.47378	   1.53614	 -17.96407
30889.76957	   2.00000	   3.45686	   1.53976	   0.48344	   1.61387	 -17.43089
30890.18857	   2.00000	   2.73547	   1.64323	   0.47419	   1.71028	 -16.09672
30890.71357	   2.00000	   2.16054	   1.74013	   0.46554	   1.80133	 -14.97768
30891.37257	   2.00000	   1.70952	   1.82062	   0.43625	   1.87216	 -13.47501
30892.20057	   2.00000	   1.35352	   1.89521	   0.39377	   1.93569	 -11.73733
30893.24357	   2.00000	   1.07079	   1.95904	   0.35069	   1.99018	 -10.14919
30894.55757	   2.00000	   0.84734	   2.00592	   0.30968	   2.02968	  -8.77610
30896.21357	   2.00000	   0.67072	   2.04308	   0.27064	   2.06092	  -7.54590
30898.30257	   2.00000	   0.53067	   2.06968	   0.23664	   2.08316	  -6.52262
30900.93857	   2.00000	   0.41976	   2.09289	   0.20825	   2.10323	  -5.68243
30904.27057	   2.00000	   0.33183	   2.11163	   0.18851	   2.12002	  -5.10152
30908.47557	   2.00000	   0.26261	   2.12676	   0.17620	   2.13405	  -4.73605
30913.78357	   2.00000	   0.20791	   2.13749	   0.16964	   2.14421	  -4.53777
30920.48857	   2.00000	   0.16452	   2.14742	   0.16675	   2.15389	  -4.44016
30928.96457	   2.00000	   0.13007	   2.15900	   0.16784	   2.16551	  -4.44522
30939.65457	   2.00000	   0.10309	   2.17269	   0.17556	   2.17977	  -4.61966
30953.16857	   2.00000	   0.08153	   2.18808	   0.19027	   2.19634	  -4.96974
30970.26657	   2.00000	   0.06443	   2.20581	   0.21134	   2.21591	  -5.47271
30991.85257	   2.00000	   0.05102	   2.22748	   0.23332	   2.23967	  -5.97967
31019.09458	   2.00000	   0.04042	   2.26192	   0.26521	   2.27742	  -6.68748
31053.59058	   2.00000	   0.03192	   2.30328	   0.31447	   2.32465	  -7.77463
31097.13758	   2.00000	   0.02528	   2.33900	   0.37530	   2.36892	  -9.11550
31152.20258	   2.00000	   0.01999	   2.37189	   0.43289	   2.41107	 -10.34317
45940.44222	   3.00000	20004.45300	   0.29848	  -0.01168	   0.29870	   2.24122
45940.58522	   3.00000	15829.12600	   0.30778	   0.00921	   0.30792	  -1.71341
45940.72722	   3.00000	12516.70300	   0.31598	   0.02685	   0.31712	  -4.85685
45940.86922	   3.00000	9909.44240	   0.32883	   0.04344	   0.33169	  -7.52537
45941.03322	   3.00000	7835.48000	   0.33878	   0.05739	   0.34360	  -9.61455
45941.23422	   3.00000	6217.24610	   0.35165	   0.06860	   0.35828	 -11.03931
45941.47222	   3.00000	4905.29100	   0.36483	   0.08065	   0.37364	 -12.46590
45941.71022	   3.00000	3881.27370	   0.38003	   0.09169	   0.39094	 -13.56475
45941.94922	   3.00000	3070.98270	   0.39579	   0.10295	   0.40896	 -14.57997
45942.18722	   3.00000	2430.77780	   0.41332	   0.11146	   0.42809	 -15.09177
45942.42522	   3.00000	1923.15370	   0.42887	   0.12249	   0.44602	 -15.94040
45942.66322	   3.00000	1522.43580	   0.44949	   0.13033	   0.46800	 -16.16919
45942.90122	   3.00000	1203.84460	   0.47030	   0.14118	   0.49103	 -16.70907
45943.14022	   3.00000	 952.86591	   0.49204	   0.15165	   0.51488	 -17.13019
45943.37822	   3.00000	 754.27557	   0.51478	   0.16166	   0.53957	 -17.43435
45943.61522	   3.00000	 596.71857	   0.53876	   0.17174	   0.56547	 -17.68069
45943.85322	   3.00000	 471.96338	   0.56453	   0.18035	   0.59264	 -17.71677
45944.09222	   3.00000	 373.20856	   0.59141	   0.19087	   0.62145	 -17.88638
45944.32922	   3.00000	 295.47278	   0.61963	   0.20269	   0.65194	 -18.11396
45944.56922	   3.00000	 233.87738	   0.64943	   0.21328	   0.68356	 -18.18097
45944.80722	   3.00000	 185.05922	   0.68291	   0.22514	   0.71906	 -18.24645
45945.04322	   3.00000	 146.35823	   0.71849	   0.23730	   0.75667	 -18.27688
45945.27922	   3.00000	 115.77804	   0.75289	   0.24966	   0.79320	 -18.34551
45945.51422	   3.00000	  91.67210	   0.79285	   0.26003	   0.83440	 -18.15787
45945.75922	   3.00000	  72.51701	   0.83453	   0.26949	   0.87696	 -17.89623
45945.98822	   3.00000	  57.36816	   0.87635	   0.27955	   0.91985	 -17.69226
45946.22522	   3.00000	  45.36290	   0.91842	   0.28822	   0.96258	 -17.42314
45946.45722	   3.00000	  35.93134	   0.96052	   0.29666	   1.00529	 -17.16360
45946.70722	   3.00000	  28.40909	   1.00286	   0.30612	   1.04854	 -16.97447
45946.92222	   3.00000	  22.48202	   1.04545	   0.31893	   1.09301	 -16.96523
45947.18722	   3.00000	  17.79613	   1.08797	   0.33022	   1.13698	 -16.88381
45947.43922	   3.00000	  14.06813	   1.13474	   0.34874	   1.18712	 -17.08396
45947.65522	   3.00000	  11.14480	   1.18677	   0.37074	   1.24333	 -17.34833
45947.92222	   3.00000	   8.81772	   1.24169	   0.39470	   1.30291	 -17.63415
45948.10022	   3.00000	   6.97545	   1.30015	   0.41905	   1.36601	 -17.86450
45948.31822	   3.00000	   5.51730	   1.38659	   0.44517	   1.45630	 -17.79935
45948.58822	   3.00000	   4.36941	   1.45448	   0.45774	   1.52481	 -17.46946
45948.92322	   3.00000	   3.45686	   1.55723	   0.46082	   1.62399	 -16.48465
45949.34222	   3.00000	   2.73547	   1.64565	   0.46527	   1.71016	 -15.78697
45949.86722	   3.00000	   2.16054	   1.73021	   0.43948	   1.78516	 -14.25190
45950.52622	   3.00000	   1.70952	   1.81597	   0.40505	   1.86060	 -12.57386
45951.35422	   3.00000	   1.35352	   1.88554	   0.37041	   1.92158	 -11.11405
45952.39722	   3.00000	   1.07079	   1.93808	   0.32934	   1.96586	  -9.64431
45953.71122	   3.00000	   0.84734	   1.97971	   0.28793	   2.00054	  -8.27516
45955.36722	   3.00000	   0.67072	   2.01355	   0.25152	   2.02920	  -7.12000
45957.45622	   3.00000	   0.53067	   2.03936	   0.22027	   2.05122	  -6.16448
45960.09222	   3.00000	   0.41976	   2.05845	   0.19594	   2.06776	  -5.43745
45963.42422	   3.00000	   0.33183	   2.07393	   0.17664	   2.08144	  -4.86809
45967.62922	   3.00000	   0.26261	   2.08722	   0.16282	   2.09356	  -4.46061
45972.93722	   3.00000	   0.20791	   2.10068	   0.15584	   2.10646	  -4.24275
45979.64222	   3.00000	   0.16452	   2.11403	   0.15568	   2.11976	  -4.21160
45988.11822	   3.00000	   0.13007	   2.12557	   0.16250	   2.13178	  -4.37171
45998.80823	   3.00000	   0.10309	   2.13540	   0.17359	   2.14244	  -4.64754
46012.32223	   3.00000	   0.08153	   2.14691	   0.18678	   2.15502	  -4.97223
46029.42023	   3.00000	   0.06443	   2.16338	   0.20536	   2.17310	  -5.42250
46051.00623	   3.00000	   0.05102	   2.18734	   0.23087	   2.19949	  -6.02518
46078.24823	   3.00000	   0.04042	   2.21184	   0.26541	   2.22771	  -6.84252
46112.74423	   3.00000	   0.03192	   2.23999	   0.30300	   2.26039	  -7.70358
46156.29123	   3.00000	   0.02528	   2.28252	   0.34089	   2.30783	  -8.49421
46211.35624	   3.00000	   0.01999	   2.34243	   0.39231	   2.37505	  -9.50776
60709.84590	   4.00000	20004.45300	   0.29965	  -0.01329	   0.29994	   2.53942
60709.98890	   4.00000	15829.12600	   0.30834	   0.00859	   0.30846	  -1.59586
60710.13090	   4.00000	12516.70300	   0.31950	   0.02705	   0.32065	  -4.83898
60710.27290	   4.00000	9909.44240	   0.32983	   0.04165	   0.33245	  -7.19688
60710.43690	   4.00000	7835.48000	   0.34197	   0.05776	   0.34682	  -9.58728
60710.63790	   4.00000	6217.24610	   0.35346	   0.06899	   0.36013	 -11.04374
60710.87590	   4.00000	4905.29100	   0.36717	   0.08084	   0.37597	 -12.41598
60711.11390	   4.00000	3881.27370	   0.38100	   0.09191	   0.39193	 -13.56308
60711.35190	   4.00000	3070.98270	   0.39761	   0.10054	   0.41013	 -14.19089
60711.58990	   4.00000	2430.77780	   0.41365	   0.11306	   0.42882	 -15.28617
60711.82890	   4.00000	1923.15370	   0.43133	   0.12210	   0.44828	 -15.80537
60712.06590	   4.00000	1522.43580	   0.45236	   0.13147	   0.47108	 -16.20577
60712.30490	   4.00000	1203.84460	   0.47167	   0.14129	   0.49238	 -16.67591
60712.54290	   4.00000	 952.86591	   0.49355	   0.15192	   0.51640	 -17.10872
60712.78190	   4.00000	 754.27557	   0.51743	   0.16048	   0.54175	 -17.23161
60713.01890	   4.00000	 596.71857	   0.53979	   0.17111	   0.56627	 -17.58855
60713.25590	   4.00000	 471.96338	   0.56773	   0.18112	   0.59592	 -17.69361
60713.49590	   4.00000	 373.20856	   0.59460	   0.19308	   0.62516	 -17.99001
60713.73290	   4.00000	 295.47278	   0.62309	   0.20261	   0.65521	 -18.01314
60713.97190	   4.00000	 233.87738	   0.65365	   0.21515	   0.68814	 -18.21921
60714.20990	   4.00000	 185.05922	   0.68477	   0.22581	   0.72104	 -18.25065
60714.44690	   4.00000	 146.35823	   0.72018	   0.23771	   0.75839	 -18.26682
60714.68290	   4.00000	 115.77804	   0.75824	   0.25008	   0.79842	 -18.25308
60714.91690	   4.00000	  91.67210	   0.79582	   0.25977	   0.83715	 -18.07748
60715.16290	   4.00000	  72.51701	   0.83661	   0.27082	   0.87935	 -17.93754
60715.39190	   4.00000	  57.36816	   0.88006	   0.28156	   0.92400	 -17.74113
60715.62790	   4.00000	  45.36290	   0.92234	   0.28718	   0.96602	 -17.29426
60715.86090	   4.00000	  35.93134	   0.96527	   0.29789	   1.01019	 -17.15045
60716.11090	   4.00000	  28.40909	   1.00743	   0.30593	   1.05286	 -16.89186
60716.32490	   4.00000	  22.48202	   1.04950	   0.31702	   1.09633	 -16.80775
60716.58990	   4.00000	  17.79613	   1.09299	   0.33317	   1.14264	 -16.95265
60716.84290	   4.00000	  14.06813	   1.13774	   0.34809	   1.18980	 -17.01121
60717.05890	   4.00000	  11.14480	   1.18964	   0.36769	   1.24517	 -17.17512
60717.32590	   4.00000	   8.81772	   1.24313	   0.39464	   1.30426	 -17.61246
60717.50390	   4.00000	   6.97545	   1.32067	   0.41973	   1.38576	 -17.63114
60717.72190	   4.00000	   5.51730	   1.38143	   0.43257	   1.44757	 -17.38687
60717.99190	   4.00000	   4.36941	   1.47520	   0.45705	   1.54438	 -17.21411
60718.32690	   4.00000	   3.45686	   1.55048	   0.46441	   1.61854	 -16.67425
60718.74490	   4.00000	   2.73547	   1.64817	   0.44862	   1.70814	 -15.22675
60719.27090	   4.00000	   2.16054	   1.74023	   0.43361	   1.79344	 -13.99144
60719.92990	   4.00000	   1.70952	   1.81264	   0.40263	   1.85682	 -12.52352
60720.75790	   4.00000	   1.35352	   1.87821	   0.36032	   1.91246	 -10.85970
60721.80090	   4.00000	   1.07079	   1.93421	   0.31880	   1.96031	  -9.35954
60723.11490	   4.00000	   0.84734	   1.97595	   0.28090	   1.99581	  -8.09101
60724.77090	   4.00000	   0.67072	   2.00771	   0.24609	   2.02273	  -6.98802
60726.85890	   4.00000	   0.53067	   2.03001	   0.21604	   2.04148	  -6.07482
60729.49590	   4.00000	   0.41976	   2.04906	   0.19080	   2.05792	  -5.31985
60732.82790	   4.00000	   0.33183	   2.06511	   0.17300	   2.07234	  -4.78862
60737.03290	   4.00000	   0.26261	   2.07812	   0.16102	   2.08435	  -4.43062
60742.34090	   4.00000	   0.20791	   2.08959	   0.15552	   2.09537	  -4.25655
60749.04590	   4.00000	   0.16452	   2.09970	   0.15329	   2.10529	  -4.17562
60757.52190	   4.00000	   0.13007	   2.11237	   0.15642	   2.11816	  -4.23497
60768.21190	   4.00000	   0.10309	   2.12760	   0.16685	   2.13413	  -4.48409
60781.72590	   4.00000	   0.08153	   2.14283	   0.18582	   2.15087	  -4.95612
60798.82390	   4.00000	   0.06443	   2.15866	   0.21078	   2.16892	  -5.57688
60820.40990	   4.00000	   0.05102	   2.17231	   0.23457	   2.18494	  -6.16311
60847.65191	   4.00000	   0.04042	   2.19790	   0.26158	   2.21341	  -6.78712
60882.14691	   4.00000	   0.03192	   2.23317	   0.30025	   2.25326	  -7.65756
60925.69491	   4.00000	   0.02528	   2.27038	   0.34938	   2.29711	  -8.74844
60980.75891	   4.00000	   0.01999	   2.30966	   0.39914	   2.34389	  -9.80468
75322.95687	   5.00000	20004.45300	   0.30153	  -0.01253	   0.30180	   2.37982
75323.09987	   5.00000	15829.12600	   0.30946	   0.00850	   0.30958	  -1.57426
75323.24187	   5.00000	12516.70300	   0.32065	   0.02667	   0.32176	  -4.75487
75323.38387	   5.00000	9909.44240	   0.33042	   0.04252	   0.33315	  -7.33210
75323.54787	   5.00000	7835.48000	   0.34246	   0.05742	   0.34724	  -9.51764
75323.74887	   5.00000	6217.24610	   0.35513	   0.06932	   0.36183	 -11.04534
75323.98687	   5.00000	4905.29100	   0.36856	   0.08099	   0.37735	 -12.39314
75324.22587	   5.00000	3881.27370	   0.38318	   0.09212	   0.39410	 -13.51851
75324.46387	   5.00000	3070.98270	   0.39906	   0.10212	   0.41192	 -14.35441
75324.70187	   5.00000	2430.77780	   0.41682	   0.11377	   0.43207	 -15.26692
75324.93987	   5.00000	1923.15370	   0.43339	   0.12176	   0.45017	 -15.69289
75325.17787	   5.00000	1522.43580	   0.45299	   0.13262	   0.47200	 -16.31762
75325.41587	   5.00000	1203.84460	   0.47426	   0.14239	   0.49517	 -16.71225
75325.65487	   5.00000	 952.86591	   0.49473	   0.15167	   0.51746	 -17.04348
