time/s	           cycle number	freq/Hz	           Re(Z)/Ohm	  -Im(Z)/Ohm	   |Z|/Ohm	   Phase(Z)/deg
8859.28252	   1.00000	20004.45300	   0.27156	  -0.01514	   0.27198	   3.19078
8859.42552	   1.00000	15829.12600	   0.28309	   0.00604	   0.28316	  -1.22146
8859.56752	   1.00000	12516.70300	   0.29273	   0.02491	   0.29379	  -4.86360
8859.70952	   1.00000	9909.44240	   0.30313	   0.03965	   0.30572	  -7.45262
8859.87352	   1.00000	7835.48000	   0.31344	   0.05204	   0.31773	  -9.42645
8860.07452	   1.00000	6217.24610	   0.32426	   0.06717	   0.33115	 -11.70336
8860.31252	   1.00000	4905.29100	   0.33903	   0.07872	   0.34805	 -13.07205
8860.55152	   1.00000	3881.27370	   0.35351	   0.08954	   0.36467	 -14.21367
8860.78952	   1.00000	3070.98270	   0.36865	   0.10014	   0.38201	 -15.19686
8861.02752	   1.00000	2430.77780	   0.38489	   0.10966	   0.40020	 -15.90320
8861.26552	   1.00000	1923.15370	   0.40117	   0.11868	   0.41835	 -16.48011
8861.50352	   1.00000	1522.43580	   0.42223	   0.12795	   0.44119	 -16.85860
8861.74152	   1.00000	1203.84460	   0.44361	   0.13807	   0.46460	 -17.28888
8861.98052	   1.00000	 952.86591	   0.46343	   0.14665	   0.48608	 -17.56021
8862.21852	   1.00000	 754.27557	   0.48624	   0.15648	   0.51080	 -17.83927
8862.45552	   1.00000	 596.71857	   0.51106	   0.16744	   0.53779	 -18.14038
8862.69352	   1.00000	 471.96338	   0.53574	   0.17626	   0.56399	 -18.21145
8862.93253	   1.00000	 373.20856	   0.56367	   0.18673	   0.59380	 -18.32868
8863.17053	   1.00000	 295.47278	   0.59041	   0.19656	   0.62227	 -18.41412
8863.40953	   1.00000	 233.87738	   0.62188	   0.20617	   0.65516	 -18.34169
8863.64753	   1.00000	 185.05922	   0.65302	   0.21500	   0.68751	 -18.22374
8863.88353	   1.00000	 146.35823	   0.68728	   0.22521	   0.72324	 -18.14318
8864.11953	   1.00000	 115.77804	   0.72115	   0.23463	   0.75836	 -18.02228
8864.35453	   1.00000	  91.67210	   0.75839	   0.24492	   0.79696	 -17.89760
8864.59953	   1.00000	  72.51701	   0.79647	   0.25450	   0.83615	 -17.72079
8864.82853	   1.00000	  57.36816	   0.83885	   0.26132	   0.87861	 -17.30269
8865.06553	   1.00000	  45.36290	   0.87739	   0.26708	   0.91714	 -16.93045
8865.29753	   1.00000	  35.93134	   0.91702	   0.27341	   0.95691	 -16.60208
8865.54753	   1.00000	  28.40909	   0.96046	   0.28002	   1.00045	 -16.25410
8865.76253	   1.00000	  22.48202	   1.00376	   0.28844	   1.04438	 -16.03230
8866.02753	   1.00000	  17.79613	   1.04727	   0.29608	   1.08831	 -15.78649
8866.27953	   1.00000	  14.06813	   1.09878	   0.30311	   1.13983	 -15.42212
8866.49553	   1.00000	  11.14480	   1.14990	   0.30962	   1.19085	 -15.06983
8866.76253	   1.00000	   8.81772	   1.20503	   0.30952	   1.24415	 -14.40535
8866.94053	   1.00000	   6.97545	   1.25994	   0.30991	   1.29749	 -13.81882
8867.15953	   1.00000	   5.51730	   1.31521	   0.29451	   1.34778	 -12.62166
8867.42853	   1.00000	   4.36941	   1.36258	   0.27823	   1.39070	 -11.54080
8867.76353	   1.00000	   3.45686	   1.41569	   0.25546	   1.43855	 -10.22886
8868.18253	   1.00000	   2.73547	   1.45923	   0.23876	   1.47863	  -9.29251
8868.70753	   1.00000	   2.16054	   1.48896	   0.21850	   1.50491	  -8.34831
8869.36653	   1.00000	   1.70952	   1.51137	   0.19559	   1.52398	  -7.37389
8870.19553	   1.00000	   1.35352	   1.53089	   0.17283	   1.54061	  -6.44122
8871.23753	   1.00000	   1.07079	   1.54742	   0.15193	   1.55486	  -5.60763
8872.55153	   1.00000	   0.84734	   1.56599	   0.13274	   1.57160	  -4.84506
8874.20753	   1.00000	   0.67072	   1.58671	   0.12008	   1.59124	  -4.32774
8876.29653	   1.00000	   0.53067	   1.61064	   0.11567	   1.61479	  -4.10769
8878.93253	   1.00000	   0.41976	   1.63073	   0.12543	   1.63555	  -4.39835
8882.26453	   1.00000	   0.33183	   1.63965	   0.14401	   1.64596	  -5.01927
8886.46953	   1.00000	   0.26261	   1.63350	   0.16137	   1.64145	  -5.64173
8891.77753	   1.00000	   0.20791	   1.61756	   0.16800	   1.62626	  -5.92967
8898.48253	   1.00000	   0.16452	   1.60192	   0.15652	   1.60955	  -5.58042
8906.95853	   1.00000	   0.13007	   1.60097	   0.12797	   1.60607	  -4.57006
8917.64853	   1.00000	   0.10309	   1.63122	   0.09302	   1.63387	  -3.26381
8931.16253	   1.00000	   0.08153	   1.70112	   0.07202	   1.70265	  -2.42443
8948.26053	   1.00000	   0.06443	   1.79848	   0.09070	   1.80077	  -2.88707
8969.84653	   1.00000	   0.05102	   1.91728	   0.18380	   1.92607	  -5.47591
8997.08853	   1.00000	   0.04042	   1.98877	   0.36200	   2.02144	 -10.31603
9031.58453	   1.00000	   0.03192	   1.95081	   0.58192	   2.03575	 -16.60977
9075.13154	   1.00000	   0.02528	   1.78607	   0.74873	   1.93666	 -22.74376
9130.19554	   1.00000	   0.01999	   1.54306	   0.77043	   1.72470	 -26.53229
24534.47564	   2.00000	20004.45300	   0.27717	  -0.01202	   0.27743	   2.48299
24534.61864	   2.00000	15829.12600	   0.28657	   0.00676	   0.28665	  -1.35188
24534.76064	   2.00000	12516.70300	   0.29864	   0.02580	   0.29975	  -4.93808
24534.90264	   2.00000	9909.44240	   0.30899	   0.04213	   0.31185	  -7.76367
24535.06664	   2.00000	7835.48000	   0.31960	   0.05711	   0.32467	 -10.13143
24535.26764	   2.00000	6217.24610	   0.33178	   0.06808	   0.33869	 -11.59518
24535.50564	   2.00000	4905.29100	   0.34590	   0.08031	   0.35510	 -13.07184
24535.74364	   2.00000	3881.27370	   0.36062	   0.09107	   0.37194	 -14.17267
24535.98164	   2.00000	3070.98270	   0.37659	   0.10176	   0.39010	 -15.12057
24536.22064	   2.00000	2430.77780	   0.39359	   0.11095	   0.40892	 -15.74240
24536.45864	   2.00000	1923.15370	   0.41070	   0.12300	   0.42872	 -16.67252
24536.69664	   2.00000	1522.43580	   0.43202	   0.13170	   0.45165	 -16.95342
24536.93464	   2.00000	1203.84460	   0.45069	   0.14179	   0.47247	 -17.46440
24537.17364	   2.00000	 952.86591	   0.47423	   0.15383	   0.49856	 -17.97245
24537.41164	   2.00000	 754.27557	   0.49698	   0.16248	   0.52286	 -18.10409
24537.64864	   2.00000	 596.71857	   0.52324	   0.17291	   0.55107	 -18.28696
24537.88664	   2.00000	 471.96338	   0.54985	   0.18077	   0.57881	 -18.19860
24538.12564	   2.00000	 373.20856	   0.57563	   0.19230	   0.60690	 -18.47330
24538.36264	   2.00000	 295.47278	   0.60664	   0.20171	   0.63929	 -18.39213
24538.60264	   2.00000	 233.87738	   0.63673	   0.21100	   0.67078	 -18.33432
24538.84064	   2.00000	 185.05922	   0.66950	   0.22159	   0.70521	 -18.31338
24539.07664	   2.00000	 146.35823	   0.70365	   0.23193	   0.74089	 -18.24309
24539.31264	   2.00000	 115.77804	   0.73953	   0.23973	   0.77741	 -17.96088
24539.54764	   2.00000	  91.67210	   0.77764	   0.24792	   0.81620	 -17.68279
24539.79264	   2.00000	  72.51701	   0.81599	   0.25701	   0.85551	 -17.48253
24540.02164	   2.00000	  57.36816	   0.85625	   0.26438	   0.89614	 -17.15902
24540.25864	   2.00000	  45.36290	   0.89851	   0.27287	   0.93903	 -16.89326
24540.49064	   2.00000	  35.93134	   0.93903	   0.28019	   0.97994	 -16.61418
24540.74064	   2.00000	  28.40909	   0.98241	   0.28599	   1.02319	 -16.23076
24540.95564	   2.00000	  22.48202	   1.02562	   0.29402	   1.06693	 -15.99628
24541.22064	   2.00000	  17.79613	   1.07269	   0.30034	   1.11395	 -15.64169
24541.47264	   2.00000	  14.06813	   1.12176	   0.30757	   1.16316	 -15.33302
24541.68864	   2.00000	  11.14480	   1.17478	   0.31275	   1.21570	 -14.90750
24541.95564	   2.00000	   8.81772	   1.22888	   0.31251	   1.26799	 -14.26802
24542.13364	   2.00000	   6.97545	   1.28346	   0.30614	   1.31946	 -13.41574
24542.35164	   2.00000	   5.51730	   1.34233	   0.29789	   1.37499	 -12.51239
24542.62164	   2.00000	   4.36941	   1.38843	   0.28208	   1.41679	 -11.48423
24542.95664	   2.00000	   3.45686	   1.43893	   0.26102	   1.46242	 -10.28163
24543.37464	   2.00000	   2.73547	   1.47612	   0.23756	   1.49511	  -9.14258
24543.89964	   2.00000	   2.16054	   1.51239	   0.20952	   1.52683	  -7.88739
24544.55964	   2.00000	   1.70952	   1.54441	   0.18883	   1.55591	  -6.97068
24545.38764	   2.00000	   1.35352	   1.56951	   0.17445	   1.57918	  -6.34221
24546.43064	   2.00000	   1.07079	   1.58623	   0.16444	   1.59473	  -5.91864
24547.74464	   2.00000	   0.84734	   1.59457	   0.15585	   1.60216	  -5.58209
24549.40064	   2.00000	   0.67072	   1.60075	   0.14530	   1.60734	  -5.18644
24551.48864	   2.00000	   0.53067	   1.60622	   0.13071	   1.61153	  -4.65248
24554.12564	   2.00000	   0.41976	   1.61746	   0.11485	   1.62153	  -4.06140
24557.45664	   2.00000	   0.33183	   1.63880	   0.10071	   1.64189	  -3.51670
24561.66264	   2.00000	   0.26261	   1.67141	   0.09645	   1.67419	  -3.30261
24566.96964	   2.00000	   0.20791	   1.71018	   0.11157	   1.71381	  -3.73272
24573.67464	   2.00000	   0.16452	   1.74164	   0.15172	   1.74823	  -4.97872
24582.15064	   2.00000	   0.13007	   1.74806	   0.20996	   1.76062	  -6.84890
24592.84064	   2.00000	   0.10309	   1.72150	   0.26433	   1.74167	  -8.72942
24606.35464	   2.00000	   0.08153	   1.66832	   0.29129	   1.69356	  -9.90411
24623.45165	   2.00000	   0.06443	   1.61661	   0.28230	   1.64108	  -9.90542
24645.03865	   2.00000	   0.05102	   1.59147	   0.21351	   1.60572	  -7.64128
24672.28065	   2.00000	   0.04042	   1.64341	   0.11359	   1.64733	  -3.95393
24706.77565	   2.00000	   0.03192	   1.80596	   0.03314	   1.80626	  -1.05113
24750.32265	   2.00000	   0.02528	   2.07390	   0.05514	   2.07464	  -1.52311
24805.38765	   2.00000	   0.01999	   2.37761	   0.26426	   2.39225	  -6.34203
39675.96684	   3.00000	20004.45300	   0.28179	  -0.01416	   0.28214	   2.87591
39676.10984	   3.00000	15829.12600	   0.29088	   0.00962	   0.29104	  -1.89488
39676.25184	   3.00000	12516.70300	   0.30044	   0.02675	   0.30163	  -5.08755
39676.39384	   3.00000	9909.44240	   0.31174	   0.04364	   0.31478	  -7.96852
39676.55784	   3.00000	7835.48000	   0.32213	   0.05693	   0.32712	 -10.02215
39676.75884	   3.00000	6217.24610	   0.33417	   0.06858	   0.34114	 -11.59814
39676.99684	   3.00000	4905.29100	   0.34704	   0.08199	   0.35660	 -13.29280
39677.23584	   3.00000	3881.27370	   0.36363	   0.09256	   0.37523	 -14.28171
39677.47385	   3.00000	3070.98270	   0.37935	   0.10374	   0.39328	 -15.29477
39677.71185	   3.00000	2430.77780	   0.39624	   0.11337	   0.41214	 -15.96676
39677.94985	   3.00000	1923.15370	   0.41308	   0.12292	   0.43098	 -16.57149
39678.18785	   3.00000	1522.43580	   0.43451	   0.13459	   0.45488	 -17.21074
39678.42585	   3.00000	1203.84460	   0.45382	   0.14235	   0.47562	 -17.41449
39678.66485	   3.00000	 952.86591	   0.47830	   0.15227	   0.50195	 -17.65868
39678.90285	   3.00000	 754.27557	   0.50138	   0.16223	   0.52697	 -17.92992
39679.13985	   3.00000	 596.71857	   0.52612	   0.17394	   0.55413	 -18.29478
39679.37785	   3.00000	 471.96338	   0.55346	   0.18240	   0.58274	 -18.24050
39679.61685	   3.00000	 373.20856	   0.58225	   0.19462	   0.61391	 -18.48232
39679.85485	   3.00000	 295.47278	   0.61021	   0.20380	   0.64334	 -18.46829
39680.09385	   3.00000	 233.87738	   0.64242	   0.21185	   0.67645	 -18.25083
39680.33185	   3.00000	 185.05922	   0.67405	   0.22435	   0.71041	 -18.40938
39680.56785	   3.00000	 146.35823	   0.70878	   0.23206	   0.74581	 -18.12878
39680.80385	   3.00000	 115.77804	   0.74510	   0.24189	   0.78338	 -17.98532
39681.03885	   3.00000	  91.67210	   0.78317	   0.24978	   0.82203	 -17.68966
39681.28385	   3.00000	  72.51701	   0.82300	   0.25944	   0.86293	 -17.49666
39681.51285	   3.00000	  57.36816	   0.86303	   0.26597	   0.90309	 -17.12847
39681.74985	   3.00000	  45.36290	   0.90493	   0.27264	   0.94511	 -16.76683
39681.98185	   3.00000	  35.93134	   0.94679	   0.27963	   0.98722	 -16.45419
39682.23185	   3.00000	  28.40909	   0.98722	   0.28513	   1.02757	 -16.10957
39682.44685	   3.00000	  22.48202	   1.03247	   0.29317	   1.07329	 -15.85192
39682.71185	   3.00000	  17.79613	   1.07754	   0.30069	   1.11871	 -15.59177
39682.96385	   3.00000	  14.06813	   1.13024	   0.30639	   1.17103	 -15.16729
39683.17985	   3.00000	  11.14480	   1.17933	   0.31072	   1.21958	 -14.76015
39683.44685	   3.00000	   8.81772	   1.23450	   0.31097	   1.27307	 -14.13854
39683.62485	   3.00000	   6.97545	   1.29560	   0.31003	   1.33218	 -13.45768
39683.84385	   3.00000	   5.51730	   1.34533	   0.29361	   1.37700	 -12.31150
39684.11285	   3.00000	   4.36941	   1.39902	   0.28324	   1.42740	 -11.44523
39684.44785	   3.00000	   3.45686	   1.44388	   0.25752	   1.46666	 -10.11249
39684.86685	   3.00000	   2.73547	   1.49008	   0.23471	   1.50845	  -8.95153
39685.39185	   3.00000	   2.16054	   1.52478	   0.21747	   1.54021	  -8.11713
39686.05085	   3.00000	   1.70952	   1.54818	   0.19890	   1.56090	  -7.32105
39686.87885	   3.00000	   1.35352	   1.56549	   0.17913	   1.57570	  -6.52755
39687.92185	   3.00000	   1.07079	   1.58028	   0.15944	   1.58830	  -5.76112
39689.23585	   3.00000	   0.84734	   1.59449	   0.14079	   1.60069	  -5.04601
39690.89185	   3.00000	   0.67072	   1.61196	   0.12480	   1.61678	  -4.42693
39692.98085	   3.00000	   0.53067	   1.63388	   0.11321	   1.63780	  -3.96356
39695.61685	   3.00000	   0.41976	   1.66083	   0.11354	   1.66470	  -3.91089
39698.94885	   3.00000	   0.33183	   1.68422	   0.12925	   1.68917	  -4.38825
39703.15385	   3.00000	   0.26261	   1.69324	   0.15542	   1.70036	  -5.24423
39708.46285	   3.00000	   0.20791	   1.68544	   0.18178	   1.69521	  -6.15563
39715.16685	   3.00000	   0.16452	   1.66261	   0.19383	   1.67387	  -6.64969
39723.64285	   3.00000	   0.13007	   1.63970	   0.18350	   1.64993	  -6.38536
39734.33385	   3.00000	   0.10309	   1.63504	   0.15144	   1.64204	  -5.29173
39747.84685	   3.00000	   0.08153	   1.66627	   0.10723	   1.66972	  -3.68223
39764.94485	   3.00000	   0.06443	   1.73786	   0.07926	   1.73966	  -2.61134
39786.53085	   3.00000	   0.05102	   1.87115	   0.08920	   1.87328	  -2.72928
39813.77385	   3.00000	   0.04042	   2.02851	   0.19550	   2.03791	  -5.50502
39848.26885	   3.00000	   0.03192	   2.13768	   0.41480	   2.17755	 -10.98136
39891.81586	   3.00000	   0.02528	   2.11250	   0.69677	   2.22444	 -18.25412
39946.88086	   3.00000	   0.01999	   1.92222	   0.93233	   2.13639	 -25.87453
54495.77752	   4.00000	20004.45300	   0.28162	  -0.01211	   0.28188	   2.46144
54495.92052	   4.00000	15829.12600	   0.29050	   0.00874	   0.29064	  -1.72334
54496.06252	   4.00000	12516.70300	   0.30136	   0.02729	   0.30259	  -5.17368
54496.20452	   4.00000	9909.44240	   0.31146	   0.04234	   0.31432	  -7.74206
54496.36852	   4.00000	7835.48000	   0.32416	   0.05752	   0.32922	 -10.06160
54496.56952	   4.00000	6217.24610	   0.33633	   0.06979	   0.34350	 -11.72302
54496.80752	   4.00000	4905.29100	   0.35021	   0.08203	   0.35969	 -13.18262
54497.04652	   4.00000	3881.27370	   0.36457	   0.09188	   0.37597	 -14.14523
54497.28352	   4.00000	3070.98270	   0.38026	   0.10333	   0.39404	 -15.20219
54497.52152	   4.00000	2430.77780	   0.39850	   0.11230	   0.41402	 -15.73829
54497.75952	   4.00000	1923.15370	   0.41485	   0.12398	   0.43298	 -16.63925
54497.99752	   4.00000	1522.43580	   0.43542	   0.13304	   0.45530	 -16.99061
54498.23552	   4.00000	1203.84460	   0.45615	   0.14268	   0.47794	 -17.36975
54498.47452	   4.00000	 952.86591	   0.47910	   0.15294	   0.50291	 -17.70439
54498.71252	   4.00000	 754.27557	   0.50290	   0.16470	   0.52918	 -18.13363
54498.94952	   4.00000	 596.71857	   0.52818	   0.17271	   0.55569	 -18.10699
54499.18752	   4.00000	 471.96338	   0.55460	   0.18436	   0.58444	 -18.38764
54499.42652	   4.00000	 373.20856	   0.58303	   0.19525	   0.61485	 -18.51479
54499.66352	   4.00000	 295.47278	   0.61213	   0.20415	   0.64527	 -18.44370
54499.90252	   4.00000	 233.87738	   0.64537	   0.21424	   0.68000	 -18.36473
54500.14052	   4.00000	 185.05922	   0.67718	   0.22325	   0.71303	 -18.24612
54500.37752	   4.00000	 146.35823	   0.71071	   0.23278	   0.74786	 -18.13506
54500.61352	   4.00000	 115.77804	   0.74718	   0.24330	   0.78579	 -18.03631
54500.84752	   4.00000	  91.67210	   0.78585	   0.25079	   0.82490	 -17.69941
54501.09352	   4.00000	  72.51701	   0.82600	   0.25989	   0.86592	 -17.46580
54501.32252	   4.00000	  57.36816	   0.86736	   0.26668	   0.90743	 -17.09075
54501.55852	   4.00000	  45.36290	   0.90919	   0.27326	   0.94937	 -16.72851
54501.79152	   4.00000	  35.93134	   0.94956	   0.27897	   0.98969	 -16.37205
54502.04152	   4.00000	  28.40909	   0.99299	   0.28713	   1.03367	 -16.12785
54502.25652	   4.00000	  22.48202	   1.03628	   0.29352	   1.07705	 -15.81429
54502.52152	   4.00000	  17.79613	   1.08179	   0.30001	   1.12262	 -15.50000
54502.77352	   4.00000	  14.06813	   1.13136	   0.30769	   1.17245	 -15.21449
54502.98952	   4.00000	  11.14480	   1.18563	   0.31366	   1.22642	 -14.81820
54503.25652	   4.00000	   8.81772	   1.23754	   0.31389	   1.27673	 -14.23245
54503.43452	   4.00000	   6.97545	   1.29415	   0.31091	   1.33097	 -13.50898
54503.65252	   4.00000	   5.51730	   1.35520	   0.29538	   1.38701	 -12.29585
54503.92252	   4.00000	   4.36941	   1.40299	   0.28744	   1.43213	 -11.57827
54504.25752	   4.00000	   3.45686	   1.44829	   0.26288	   1.47196	 -10.28785
54504.67652	   4.00000	   2.73547	   1.48942	   0.24010	   1.50865	  -9.15745
54505.20152	   4.00000	   2.16054	   1.52281	   0.21451	   1.53784	  -8.01832
54505.86052	   4.00000	   1.70952	   1.55299	   0.18835	   1.56437	  -6.91508
54506.68852	   4.00000	   1.35352	   1.58154	   0.17047	   1.59070	  -6.15186
54507.73152	   4.00000	   1.07079	   1.60391	   0.16134	   1.61200	  -5.74414
54509.04552	   4.00000	   0.84734	   1.61675	   0.15644	   1.62430	  -5.52699
54510.70152	   4.00000	   0.67072	   1.62335	   0.15210	   1.63046	  -5.35271
54512.79052	   4.00000	   0.53067	   1.62475	   0.14283	   1.63101	  -5.02407
54515.42652	   4.00000	   0.41976	   1.62807	   0.12975	   1.63323	  -4.55665
54518.75852	   4.00000	   0.33183	   1.63961	   0.11339	   1.64353	  -3.95601
54522.96352	   4.00000	   0.26261	   1.66315	   0.09861	   1.66607	  -3.39324
54528.27252	   4.00000	   0.20791	   1.70130	   0.09462	   1.70392	  -3.18347
54534.97652	   4.00000	   0.16452	   1.74804	   0.11521	   1.75183	  -3.77081
54543.45252	   4.00000	   0.13007	   1.78643	   0.16634	   1.79415	  -5.31969
54554.14252	   4.00000	   0.10309	   1.79482	   0.24027	   1.81083	  -7.62470
54567.65653	   4.00000	   0.08153	   1.76151	   0.31226	   1.78897	 -10.05234
54584.75453	   4.00000	   0.06443	   1.70322	   0.35875	   1.74059	 -11.89440
54606.34053	   4.00000	   0.05102	   1.62236	   0.33870	   1.65733	 -11.79225
54633.58253	   4.00000	   0.04042	   1.58449	   0.24948	   1.60401	  -8.94796
54668.07853	   4.00000	   0.03192	   1.64463	   0.11566	   1.64869	  -4.02288
54711.62553	   4.00000	   0.02528	   1.84244	   0.00212	   1.84244	  -0.06608
54766.69054	   4.00000	   0.01999	   2.18387	   0.01068	   2.18389	  -0.28030
69138.17536	   5.00000	20004.45300	   0.28337	  -0.01310	   0.28367	   2.64620
69138.31836	   5.00000	15829.12600	   0.29078	   0.00815	   0.29090	  -1.60496
69138.46036	   5.00000	12516.70300	   0.30307	   0.02511	   0.30411	  -4.73613
69138.60236	   5.00000	9909.44240	   0.31256	   0.04207	   0.31538	  -7.66657
69138.76636	   5.00000	7835.48000	   0.32395	   0.05670	   0.32887	  -9.92770
69138.96736	   5.00000	6217.24610	   0.33569	   0.06989	   0.34289	 -11.76034
69139.20536	   5.00000	4905.29100	   0.35035	   0.08253	   0.35994	 -13.25449
69139.44436	   5.00000	3881.27370	   0.36423	   0.09154	   0.37555	 -14.10784
69139.68236	   5.00000	3070.98270	   0.38044	   0.10326	   0.39421	 -15.18547
69139.92036	   5.00000	2430.77780	   0.39849	   0.11360	   0.41437	 -15.91140
69140.15836	   5.00000	1923.15370	   0.41652	   0.12328	   0.43438	 -16.48756
69140.39636	   5.00000	1522.43580	   0.43549	   0.13363	   0.45553	 -17.05802
69140.63436	   5.00000	1203.84460	   0.45640	   0.14408	   0.47860	 -17.51986
69140.87336	   5.00000	 952.86591	   0.47942	   0.15391	   0.50352	 -17.79852
69141.11136	   5.00000	 754.27557	   0.50356	   0.16428	   0.52968	 -18.06839
