time/s	           cycle number	freq/Hz	           Re(Z)/Ohm	  -Im(Z)/Ohm	   |Z|/Ohm	   Phase(Z)/deg
12798.32616	   1.00000	20004.45300	   0.27315	  -0.02417	   0.27421	   5.05586
12798.46916	   1.00000	15829.12600	   0.28005	  -0.00205	   0.28006	   0.41851
12798.61116	   1.00000	12516.70300	   0.28916	   0.01587	   0.28959	  -3.14092
12798.75316	   1.00000	9909.44240	   0.29896	   0.03140	   0.30061	  -5.99651
12798.91716	   1.00000	7835.48000	   0.31009	   0.04675	   0.31360	  -8.57386
12799.11816	   1.00000	6217.24610	   0.31906	   0.05994	   0.32464	 -10.63989
12799.35616	   1.00000	4905.29100	   0.33337	   0.07115	   0.34088	 -12.04697
12799.59416	   1.00000	3881.27370	   0.34554	   0.08355	   0.35549	 -13.59313
12799.83116	   1.00000	3070.98270	   0.36048	   0.09416	   0.37257	 -14.63933
12800.06916	   1.00000	2430.77780	   0.37582	   0.10375	   0.38988	 -15.43237
12800.30716	   1.00000	1923.15370	   0.39335	   0.11475	   0.40974	 -16.26329
12800.54516	   1.00000	1522.43580	   0.40844	   0.12392	   0.42682	 -16.87727
12800.78316	   1.00000	1203.84460	   0.43020	   0.13419	   0.45065	 -17.32442
12801.02216	   1.00000	 952.86591	   0.45173	   0.14326	   0.47390	 -17.59627
12801.26016	   1.00000	 754.27557	   0.47290	   0.15334	   0.49713	 -17.96526
12801.49716	   1.00000	 596.71857	   0.49777	   0.16321	   0.52385	 -18.15369
12801.73416	   1.00000	 471.96338	   0.52125	   0.17274	   0.54913	 -18.33546
12801.97416	   1.00000	 373.20856	   0.54914	   0.18351	   0.57899	 -18.47828
12802.21116	   1.00000	 295.47278	   0.57433	   0.19380	   0.60615	 -18.64667
12802.45016	   1.00000	 233.87738	   0.60439	   0.20395	   0.63787	 -18.64660
12802.68816	   1.00000	 185.05922	   0.63654	   0.21536	   0.67199	 -18.69210
12802.92516	   1.00000	 146.35823	   0.66941	   0.22508	   0.70624	 -18.58470
12803.16116	   1.00000	 115.77804	   0.70579	   0.23740	   0.74465	 -18.59111
12803.39516	   1.00000	  91.67210	   0.74482	   0.24544	   0.78422	 -18.23885
12803.64116	   1.00000	  72.51701	   0.78408	   0.25304	   0.82390	 -17.88578
12803.87016	   1.00000	  57.36816	   0.82755	   0.26057	   0.86761	 -17.47777
12804.10716	   1.00000	  45.36290	   0.87096	   0.26726	   0.91105	 -17.05920
12804.33916	   1.00000	  35.93134	   0.91218	   0.26845	   0.95087	 -16.39914
12804.58916	   1.00000	  28.40909	   0.95987	   0.27194	   0.99765	 -15.81779
12804.80416	   1.00000	  22.48202	   1.00701	   0.27090	   1.04281	 -15.05676
12805.06916	   1.00000	  17.79613	   1.05174	   0.26626	   1.08492	 -14.20664
12805.32116	   1.00000	  14.06813	   1.09944	   0.26000	   1.12977	 -13.30481
12805.53716	   1.00000	  11.14480	   1.14468	   0.24849	   1.17134	 -12.24781
12805.80416	   1.00000	   8.81772	   1.18634	   0.23342	   1.20908	 -11.13111
12805.98216	   1.00000	   6.97545	   1.22370	   0.21774	   1.24292	 -10.08950
12806.20016	   1.00000	   5.51730	   1.25889	   0.19587	   1.27404	  -8.84355
12806.47016	   1.00000	   4.36941	   1.28592	   0.17684	   1.29803	  -7.83017
12806.80516	   1.00000	   3.45686	   1.30754	   0.15579	   1.31679	  -6.79479
12807.22416	   1.00000	   2.73547	   1.32693	   0.13855	   1.33414	  -5.96092
12807.74916	   1.00000	   2.16054	   1.34171	   0.12226	   1.34727	  -5.20657
12808.40816	   1.00000	   1.70952	   1.35332	   0.10928	   1.35772	  -4.61679
12809.23716	   1.00000	   1.35352	   1.36473	   0.09842	   1.36827	  -4.12491
12810.27916	   1.00000	   1.07079	   1.37386	   0.09166	   1.37692	  -3.81675
12811.59316	   1.00000	   0.84734	   1.38201	   0.08718	   1.38476	  -3.60949
12813.24916	   1.00000	   0.67072	   1.38927	   0.08326	   1.39177	  -3.42979
12815.33816	   1.00000	   0.53067	   1.39712	   0.08138	   1.39949	  -3.33354
12817.97516	   1.00000	   0.41976	   1.40560	   0.08233	   1.40801	  -3.35224
12821.30616	   1.00000	   0.33183	   1.41350	   0.08637	   1.41614	  -3.49667
12825.51216	   1.00000	   0.26261	   1.42035	   0.09111	   1.42327	  -3.67031
12830.82016	   1.00000	   0.20791	   1.42856	   0.09671	   1.43183	  -3.87284
12837.52416	   1.00000	   0.16452	   1.43862	   0.10482	   1.44244	  -4.16723
12846.00117	   1.00000	   0.13007	   1.44953	   0.11670	   1.45422	  -4.60286
12856.69117	   1.00000	   0.10309	   1.46046	   0.13183	   1.46640	  -5.15806
12870.20517	   1.00000	   0.08153	   1.47192	   0.14918	   1.47946	  -5.78729
12887.30317	   1.00000	   0.06443	   1.48755	   0.16948	   1.49717	  -6.49994
12908.88917	   1.00000	   0.05102	   1.50891	   0.19432	   1.52137	  -7.33827
12936.13217	   1.00000	   0.04042	   1.53335	   0.23012	   1.55052	  -8.53504
12970.62717	   1.00000	   0.03192	   1.55535	   0.27316	   1.57915	  -9.96102
13014.17517	   1.00000	   0.02528	   1.57783	   0.31468	   1.60891	 -11.27894
13069.24018	   1.00000	   0.01999	   1.61227	   0.35528	   1.65095	 -12.42704
28978.17807	   2.00000	20004.45300	   0.27629	  -0.02377	   0.27731	   4.91632
28978.32107	   2.00000	15829.12600	   0.28387	  -0.00208	   0.28388	   0.41939
28978.46307	   2.00000	12516.70300	   0.29284	   0.01808	   0.29340	  -3.53245
28978.60507	   2.00000	9909.44240	   0.30291	   0.03351	   0.30476	  -6.31317
28978.76907	   2.00000	7835.48000	   0.31388	   0.04893	   0.31767	  -8.86084
28978.97007	   2.00000	6217.24610	   0.32336	   0.05886	   0.32867	 -10.31692
28979.20807	   2.00000	4905.29100	   0.33632	   0.07234	   0.34401	 -12.13840
28979.44707	   2.00000	3881.27370	   0.34955	   0.08440	   0.35959	 -13.57462
28979.68507	   2.00000	3070.98270	   0.36379	   0.09633	   0.37633	 -14.83178
28979.92307	   2.00000	2430.77780	   0.37987	   0.10414	   0.39388	 -15.33160
28980.16107	   2.00000	1923.15370	   0.39822	   0.11412	   0.41425	 -15.99038
28980.39907	   2.00000	1522.43580	   0.41501	   0.12536	   0.43353	 -16.80737
28980.63707	   2.00000	1203.84460	   0.43550	   0.13518	   0.45600	 -17.24513
28980.87607	   2.00000	 952.86591	   0.45653	   0.14578	   0.47924	 -17.70972
28981.11407	   2.00000	 754.27557	   0.47915	   0.15471	   0.50350	 -17.89437
28981.35107	   2.00000	 596.71857	   0.50295	   0.16427	   0.52909	 -18.08737
28981.58907	   2.00000	 471.96338	   0.52724	   0.17547	   0.55568	 -18.40795
28981.82807	   2.00000	 373.20856	   0.55506	   0.18574	   0.58531	 -18.50172
28982.06507	   2.00000	 295.47278	   0.58260	   0.19648	   0.61483	 -18.63653
28982.30407	   2.00000	 233.87738	   0.61205	   0.20564	   0.64567	 -18.57195
28982.54207	   2.00000	 185.05922	   0.64386	   0.21679	   0.67938	 -18.60833
28982.77907	   2.00000	 146.35823	   0.67835	   0.22783	   0.71559	 -18.56519
28983.01507	   2.00000	 115.77804	   0.71336	   0.23801	   0.75202	 -18.45108
28983.24907	   2.00000	  91.67210	   0.75297	   0.24817	   0.79281	 -18.24140
28983.49507	   2.00000	  72.51701	   0.79381	   0.25789	   0.83465	 -17.99783
28983.72407	   2.00000	  57.36816	   0.83446	   0.26393	   0.87520	 -17.55131
28983.96107	   2.00000	  45.36290	   0.87974	   0.26807	   0.91968	 -16.94657
28984.19307	   2.00000	  35.93134	   0.92419	   0.27245	   0.96351	 -16.42520
28984.44307	   2.00000	  28.40909	   0.96906	   0.27337	   1.00688	 -15.75355
28984.65807	   2.00000	  22.48202	   1.01632	   0.27261	   1.05225	 -15.01487
28984.92307	   2.00000	  17.79613	   1.06303	   0.27068	   1.09695	 -14.28563
28985.17507	   2.00000	  14.06813	   1.11078	   0.26259	   1.14140	 -13.30045
28985.39107	   2.00000	  11.14480	   1.15591	   0.25208	   1.18308	 -12.30242
28985.65807	   2.00000	   8.81772	   1.19721	   0.23726	   1.22049	 -11.20974
28985.83607	   2.00000	   6.97545	   1.23866	   0.22135	   1.25829	 -10.13178
28986.05507	   2.00000	   5.51730	   1.27152	   0.19849	   1.28691	  -8.87242
28986.32407	   2.00000	   4.36941	   1.30090	   0.18020	   1.31333	  -7.88658
28986.65907	   2.00000	   3.45686	   1.32156	   0.15939	   1.33113	  -6.87716
28987.07807	   2.00000	   2.73547	   1.34236	   0.13953	   1.34959	  -5.93425
28987.60307	   2.00000	   2.16054	   1.35863	   0.12496	   1.36437	  -5.25518
28988.26207	   2.00000	   1.70952	   1.37093	   0.11167	   1.37547	  -4.65680
28989.09007	   2.00000	   1.35352	   1.38090	   0.10132	   1.38461	  -4.19659
28990.13307	   2.00000	   1.07079	   1.39068	   0.09272	   1.39377	  -3.81453
28991.44707	   2.00000	   0.84734	   1.39912	   0.08759	   1.40186	  -3.58223
28993.10308	   2.00000	   0.67072	   1.40721	   0.08493	   1.40977	  -3.45365
28995.19208	   2.00000	   0.53067	   1.41321	   0.08339	   1.41567	  -3.37678
28997.82908	   2.00000	   0.41976	   1.42124	   0.08319	   1.42367	  -3.34981
29001.16008	   2.00000	   0.33183	   1.43019	   0.08572	   1.43276	  -3.42983
29005.36608	   2.00000	   0.26261	   1.43814	   0.09137	   1.44104	  -3.63531
29010.67408	   2.00000	   0.20791	   1.44623	   0.09795	   1.44954	  -3.87454
29017.37808	   2.00000	   0.16452	   1.45503	   0.10618	   1.45890	  -4.17378
29025.85508	   2.00000	   0.13007	   1.46659	   0.11683	   1.47124	  -4.55465
29036.54508	   2.00000	   0.10309	   1.47990	   0.13249	   1.48582	  -5.11585
29050.05908	   2.00000	   0.08153	   1.49337	   0.15389	   1.50127	  -5.88368
29067.15708	   2.00000	   0.06443	   1.50611	   0.17862	   1.51666	  -6.76358
29088.74308	   2.00000	   0.05102	   1.51863	   0.20208	   1.53202	  -7.57977
29115.98608	   2.00000	   0.04042	   1.54019	   0.22869	   1.55708	  -8.44580
29150.48108	   2.00000	   0.03192	   1.56964	   0.26520	   1.59188	  -9.59003
29194.02908	   2.00000	   0.02528	   1.59966	   0.30981	   1.62938	 -10.96088
29249.09409	   2.00000	   0.01999	   1.63244	   0.35557	   1.67071	 -12.28782
44904.13293	   3.00000	20004.45300	   0.27867	  -0.02374	   0.27968	   4.86988
44904.27593	   3.00000	15829.12600	   0.28615	  -0.00180	   0.28615	   0.36042
44904.41793	   3.00000	12516.70300	   0.29355	   0.01718	   0.29405	  -3.34956
44904.55993	   3.00000	9909.44240	   0.30318	   0.03401	   0.30508	  -6.40120
44904.72393	   3.00000	7835.48000	   0.31465	   0.04755	   0.31823	  -8.59429
44904.92493	   3.00000	6217.24610	   0.32499	   0.06117	   0.33070	 -10.65975
44905.16293	   3.00000	4905.29100	   0.33661	   0.07262	   0.34435	 -12.17359
44905.40193	   3.00000	3881.27370	   0.35166	   0.08385	   0.36152	 -13.41161
44905.63993	   3.00000	3070.98270	   0.36575	   0.09561	   0.37804	 -14.64972
44905.87793	   3.00000	2430.77780	   0.38206	   0.10602	   0.39650	 -15.50965
44906.11593	   3.00000	1923.15370	   0.39967	   0.11774	   0.41665	 -16.41500
44906.35393	   3.00000	1522.43580	   0.41674	   0.12523	   0.43515	 -16.72485
44906.59193	   3.00000	1203.84460	   0.43595	   0.13505	   0.45638	 -17.21185
44906.83093	   3.00000	 952.86591	   0.45960	   0.14552	   0.48209	 -17.56886
44907.06893	   3.00000	 754.27557	   0.48020	   0.15570	   0.50482	 -17.96466
44907.30593	   3.00000	 596.71857	   0.50473	   0.16469	   0.53092	 -18.07098
44907.54393	   3.00000	 471.96338	   0.53057	   0.17491	   0.55865	 -18.24551
44907.78293	   3.00000	 373.20856	   0.55711	   0.18511	   0.58706	 -18.37972
44908.01993	   3.00000	 295.47278	   0.58490	   0.19472	   0.61646	 -18.41351
44908.25993	   3.00000	 233.87738	   0.61510	   0.20690	   0.64896	 -18.59148
44908.49793	   3.00000	 185.05922	   0.64676	   0.21782	   0.68246	 -18.61303
44908.73393	   3.00000	 146.35823	   0.67969	   0.22883	   0.71717	 -18.60690
44908.96993	   3.00000	 115.77804	   0.71680	   0.23956	   0.75577	 -18.48021
44909.20493	   3.00000	  91.67210	   0.75531	   0.24805	   0.79500	 -18.18080
44909.44993	   3.00000	  72.51701	   0.79649	   0.25687	   0.83689	 -17.87461
44909.67893	   3.00000	  57.36816	   0.83868	   0.26370	   0.87916	 -17.45400
44909.91593	   3.00000	  45.36290	   0.88263	   0.27016	   0.92305	 -17.01839
44910.14793	   3.00000	  35.93134	   0.92755	   0.27335	   0.96699	 -16.42049
44910.39793	   3.00000	  28.40909	   0.97281	   0.27399	   1.01066	 -15.72966
44910.61293	   3.00000	  22.48202	   1.01894	   0.27413	   1.05517	 -15.05792
44910.87793	   3.00000	  17.79613	   1.06540	   0.27030	   1.09915	 -14.23626
44911.12993	   3.00000	  14.06813	   1.11338	   0.26454	   1.14438	 -13.36546
44911.34593	   3.00000	  11.14480	   1.15887	   0.25287	   1.18614	 -12.30924
44911.61393	   3.00000	   8.81772	   1.20151	   0.23880	   1.22501	 -11.24110
44911.79193	   3.00000	   6.97545	   1.24254	   0.22234	   1.26227	 -10.14530
44912.00993	   3.00000	   5.51730	   1.27580	   0.20002	   1.29139	  -8.91010
44912.27893	   3.00000	   4.36941	   1.30428	   0.18145	   1.31684	  -7.92023
44912.61393	   3.00000	   3.45686	   1.32598	   0.15990	   1.33559	  -6.87600
44913.03293	   3.00000	   2.73547	   1.34799	   0.14074	   1.35532	  -5.96038
44913.55793	   3.00000	   2.16054	   1.36268	   0.12635	   1.36853	  -5.29743
44914.21693	   3.00000	   1.70952	   1.37455	   0.11283	   1.37917	  -4.69249
44915.04593	   3.00000	   1.35352	   1.38528	   0.10139	   1.38898	  -4.18622
44916.08893	   3.00000	   1.07079	   1.39553	   0.09338	   1.39865	  -3.82802
44917.40193	   3.00000	   0.84734	   1.40380	   0.08826	   1.40657	  -3.59752
44919.05793	   3.00000	   0.67072	   1.41187	   0.08529	   1.41445	  -3.45682
44921.14693	   3.00000	   0.53067	   1.41827	   0.08344	   1.42073	  -3.36706
44923.78393	   3.00000	   0.41976	   1.42681	   0.08332	   1.42924	  -3.34217
44927.11493	   3.00000	   0.33183	   1.43589	   0.08642	   1.43848	  -3.44442
44931.32093	   3.00000	   0.26261	   1.44366	   0.09201	   1.44659	  -3.64674
44936.62893	   3.00000	   0.20791	   1.45104	   0.09842	   1.45437	  -3.88019
44943.33293	   3.00000	   0.16452	   1.46112	   0.10642	   1.46499	  -4.16561
44951.80993	   3.00000	   0.13007	   1.47354	   0.11791	   1.47825	  -4.57478
44962.49993	   3.00000	   0.10309	   1.48649	   0.13467	   1.49258	  -5.17648
44976.01393	   3.00000	   0.08153	   1.49832	   0.15551	   1.50637	  -5.92563
44993.11093	   3.00000	   0.06443	   1.51114	   0.17982	   1.52180	  -6.78602
45014.69793	   3.00000	   0.05102	   1.52581	   0.20148	   1.53906	  -7.52239
45041.94093	   3.00000	   0.04042	   1.54980	   0.22949	   1.56670	  -8.42305
45076.43593	   3.00000	   0.03192	   1.57839	   0.26820	   1.60102	  -9.64361
45119.98294	   3.00000	   0.02528	   1.60688	   0.31168	   1.63682	 -10.97722
45175.04894	   3.00000	   0.01999	   1.64261	   0.35541	   1.68062	 -12.20888
60621.69200	   4.00000	20004.45300	   0.27869	  -0.02297	   0.27964	   4.71119
60621.83500	   4.00000	15829.12600	   0.28683	  -0.00243	   0.28684	   0.48509
60621.97700	   4.00000	12516.70300	   0.29455	   0.01838	   0.29512	  -3.57043
60622.11900	   4.00000	9909.44240	   0.30504	   0.03411	   0.30694	  -6.38104
60622.28300	   4.00000	7835.48000	   0.31447	   0.04776	   0.31808	  -8.63616
60622.48400	   4.00000	6217.24610	   0.32598	   0.06176	   0.33178	 -10.72799
60622.72200	   4.00000	4905.29100	   0.33778	   0.07306	   0.34559	 -12.20416
60622.96100	   4.00000	3881.27370	   0.35187	   0.08410	   0.36178	 -13.44283
60623.19900	   4.00000	3070.98270	   0.36586	   0.09541	   0.37810	 -14.61607
60623.43700	   4.00000	2430.77780	   0.38250	   0.10561	   0.39682	 -15.43553
60623.67500	   4.00000	1923.15370	   0.40015	   0.11607	   0.41664	 -16.17560
60623.91300	   4.00000	1522.43580	   0.41947	   0.12618	   0.43804	 -16.74227
60624.15100	   4.00000	1203.84460	   0.43895	   0.13756	   0.46000	 -17.39997
60624.39000	   4.00000	 952.86591	   0.46031	   0.14589	   0.48288	 -17.58576
60624.62800	   4.00000	 754.27557	   0.48153	   0.15577	   0.50610	 -17.92608
60624.86500	   4.00000	 596.71857	   0.50709	   0.16632	   0.53367	 -18.15905
60625.10300	   4.00000	 471.96338	   0.53178	   0.17706	   0.56049	 -18.41558
60625.34200	   4.00000	 373.20856	   0.55804	   0.18671	   0.58845	 -18.49948
60625.57900	   4.00000	 295.47278	   0.58562	   0.19653	   0.61772	 -18.55096
60625.81800	   4.00000	 233.87738	   0.61627	   0.20766	   0.65032	 -18.62163
60626.05600	   4.00000	 185.05922	   0.64776	   0.21896	   0.68377	 -18.67659
60626.29200	   4.00000	 146.35823	   0.68152	   0.22861	   0.71885	 -18.54366
60626.52800	   4.00000	 115.77804	   0.71886	   0.23953	   0.75772	 -18.42846
60626.76300	   4.00000	  91.67210	   0.75736	   0.24852	   0.79710	 -18.16683
60627.00800	   4.00000	  72.51701	   0.79863	   0.25772	   0.83918	 -17.88487
60627.23700	   4.00000	  57.36816	   0.84128	   0.26411	   0.88176	 -17.42933
60627.47400	   4.00000	  45.36290	   0.88507	   0.27144	   0.92576	 -17.05013
60627.70600	   4.00000	  35.93134	   0.92958	   0.27537	   0.96951	 -16.50066
60627.95600	   4.00000	  28.40909	   0.97589	   0.27529	   1.01398	 -15.75300
60628.17100	   4.00000	  22.48202	   1.02070	   0.27572	   1.05729	 -15.11633
60628.43600	   4.00000	  17.79613	   1.06890	   0.27284	   1.10318	 -14.31928
60628.68800	   4.00000	  14.06813	   1.11721	   0.26641	   1.14854	 -13.41252
60628.90400	   4.00000	  11.14480	   1.16256	   0.25559	   1.19033	 -12.39929
60629.17100	   4.00000	   8.81772	   1.20660	   0.24060	   1.23036	 -11.27724
60629.34900	   4.00000	   6.97545	   1.24703	   0.22484	   1.26713	 -10.22061
60629.56800	   4.00000	   5.51730	   1.28068	   0.20250	   1.29659	  -8.98517
60629.83700	   4.00000	   4.36941	   1.31031	   0.18358	   1.32310	  -7.97540
60630.17200	   4.00000	   3.45686	   1.33268	   0.16255	   1.34255	  -6.95399
60630.59100	   4.00000	   2.73547	   1.35475	   0.14274	   1.36225	  -6.01450
60631.11600	   4.00000	   2.16054	   1.37081	   0.12758	   1.37674	  -5.31712
60631.77500	   4.00000	   1.70952	   1.38267	   0.11449	   1.38741	  -4.73364
60632.60400	   4.00000	   1.35352	   1.39261	   0.10261	   1.39638	  -4.21400
60633.64600	   4.00000	   1.07079	   1.40353	   0.09395	   1.40667	  -3.82940
60634.96000	   4.00000	   0.84734	   1.41192	   0.08899	   1.41472	  -3.60626
60636.61600	   4.00000	   0.67072	   1.42007	   0.08643	   1.42269	  -3.48276
60638.70500	   4.00000	   0.53067	   1.42649	   0.08449	   1.42899	  -3.38968
60641.34100	   4.00000	   0.41976	   1.43463	   0.08460	   1.43712	  -3.37476
60644.67300	   4.00000	   0.33183	   1.44401	   0.08693	   1.44662	  -3.44524
60648.87700	   4.00000	   0.26261	   1.45226	   0.09259	   1.45521	  -3.64804
60654.18501	   4.00000	   0.20791	   1.46037	   0.09930	   1.46374	  -3.89007
60660.89001	   4.00000	   0.16452	   1.46953	   0.10764	   1.47347	  -4.18923
60669.36601	   4.00000	   0.13007	   1.48158	   0.11855	   1.48632	  -4.57471
60680.05601	   4.00000	   0.10309	   1.49518	   0.13453	   1.50122	  -5.14125
60693.57001	   4.00000	   0.08153	   1.50849	   0.15607	   1.51654	  -5.90675
60710.66801	   4.00000	   0.06443	   1.52200	   0.18099	   1.53272	  -6.78165
60732.25401	   4.00000	   0.05102	   1.53554	   0.20443	   1.54909	  -7.58322
60759.49701	   4.00000	   0.04042	   1.55849	   0.23100	   1.57552	  -8.43115
60793.99201	   4.00000	   0.03192	   1.58767	   0.26831	   1.61018	  -9.59219
60837.54001	   4.00000	   0.02528	   1.61820	   0.31316	   1.64822	 -10.95286
60892.60502	   4.00000	   0.01999	   1.65230	   0.35839	   1.69073	 -12.23813
76204.11778	   5.00000	20004.45300	   0.27973	  -0.02390	   0.28075	   4.88347
76204.26078	   5.00000	15829.12600	   0.28724	  -0.00309	   0.28726	   0.61636
76204.40278	   5.00000	12516.70300	   0.29789	   0.01713	   0.29838	  -3.29059
76204.54478	   5.00000	9909.44240	   0.30531	   0.03400	   0.30719	  -6.35360
76204.70878	   5.00000	7835.48000	   0.31516	   0.04850	   0.31887	  -8.74931
76204.90978	   5.00000	6217.24610	   0.32650	   0.06054	   0.33206	 -10.50423
76205.14778	   5.00000	4905.29100	   0.33982	   0.07364	   0.34771	 -12.22720
76205.38678	   5.00000	3881.27370	   0.35299	   0.08453	   0.36297	 -13.46691
76205.62478	   5.00000	3070.98270	   0.36814	   0.09481	   0.38015	 -14.44234
76205.86278	   5.00000	2430.77780	   0.38376	   0.10712	   0.39843	 -15.59651
76206.10078	   5.00000	1923.15370	   0.40034	   0.11755	   0.41724	 -16.36386
76206.33878	   5.00000	1522.43580	   0.41795	   0.12607	   0.43655	 -16.78506
76206.57678	   5.00000	1203.84460	   0.43885	   0.13671	   0.45965	 -17.30232
76206.81578	   5.00000	 952.86591	   0.45993	   0.14586	   0.48250	 -17.59509
