time/s	           cycle number	freq/Hz	           Re(Z)/Ohm	  -Im(Z)/Ohm	   |Z|/Ohm	   Phase(Z)/deg
11432.18711	   1.00000	20004.45300	   0.29223	  -0.01579	   0.29266	   3.09197
11432.32911	   1.00000	15829.12600	   0.29733	   0.00467	   0.29736	  -0.89936
11432.47111	   1.00000	12516.70300	   0.30746	   0.02011	   0.30812	  -3.74157
11432.61311	   1.00000	9909.44240	   0.31728	   0.03579	   0.31929	  -6.43554
11432.77811	   1.00000	7835.48000	   0.32682	   0.04809	   0.33034	  -8.37010
11432.97811	   1.00000	6217.24610	   0.33835	   0.06106	   0.34382	 -10.23029
11433.21711	   1.00000	4905.29100	   0.35012	   0.07284	   0.35762	 -11.75167
11433.45511	   1.00000	3881.27370	   0.36239	   0.08149	   0.37144	 -12.67341
11433.69311	   1.00000	3070.98270	   0.37819	   0.09219	   0.38927	 -13.70003
11433.93111	   1.00000	2430.77780	   0.39312	   0.10154	   0.40602	 -14.48299
11434.16911	   1.00000	1923.15370	   0.40752	   0.10933	   0.42193	 -15.01741
11434.40711	   1.00000	1522.43580	   0.42566	   0.11827	   0.44179	 -15.52859
11434.64511	   1.00000	1203.84460	   0.44637	   0.12781	   0.46431	 -15.97778
11434.88411	   1.00000	 952.86591	   0.46582	   0.13728	   0.48563	 -16.42115
11435.12211	   1.00000	 754.27557	   0.48606	   0.14630	   0.50760	 -16.75126
11435.36011	   1.00000	 596.71857	   0.50957	   0.15431	   0.53242	 -16.84782
11435.59711	   1.00000	 471.96338	   0.53178	   0.16450	   0.55664	 -17.18872
11435.83611	   1.00000	 373.20856	   0.55776	   0.17247	   0.58382	 -17.18316
11436.07411	   1.00000	 295.47278	   0.58375	   0.18303	   0.61177	 -17.40842
11436.31311	   1.00000	 233.87738	   0.61196	   0.19067	   0.64097	 -17.30548
11436.55111	   1.00000	 185.05922	   0.64164	   0.19948	   0.67193	 -17.27012
11436.78711	   1.00000	 146.35823	   0.67208	   0.20748	   0.70338	 -17.15640
11437.02411	   1.00000	 115.77804	   0.70586	   0.21779	   0.73869	 -17.14735
11437.25811	   1.00000	  91.67210	   0.74149	   0.22534	   0.77497	 -16.90415
11437.50311	   1.00000	  72.51701	   0.77512	   0.23269	   0.80929	 -16.70960
11437.73311	   1.00000	  57.36816	   0.81442	   0.23757	   0.84836	 -16.26195
11437.96911	   1.00000	  45.36290	   0.85552	   0.24281	   0.88931	 -15.84458
11438.20211	   1.00000	  35.93134	   0.89552	   0.24588	   0.92866	 -15.35301
11438.45211	   1.00000	  28.40909	   0.93711	   0.24585	   0.96882	 -14.70019
11438.66611	   1.00000	  22.48202	   0.97694	   0.24578	   1.00739	 -14.12116
11438.93111	   1.00000	  17.79613	   1.01930	   0.24295	   1.04785	 -13.40643
11439.18411	   1.00000	  14.06813	   1.06272	   0.23657	   1.08873	 -12.55005
11439.40011	   1.00000	  11.14480	   1.10355	   0.22380	   1.12601	 -11.46395
11439.66711	   1.00000	   8.81772	   1.14229	   0.20856	   1.16118	 -10.34730
11439.84511	   1.00000	   6.97545	   1.17597	   0.19400	   1.19186	  -9.36765
11440.06311	   1.00000	   5.51730	   1.20193	   0.17300	   1.21431	  -8.19076
11440.33211	   1.00000	   4.36941	   1.22738	   0.15428	   1.23704	  -7.16442
11440.66711	   1.00000	   3.45686	   1.24775	   0.13383	   1.25490	  -6.12182
11441.08611	   1.00000	   2.73547	   1.26865	   0.12103	   1.27441	  -5.44946
11441.61111	   1.00000	   2.16054	   1.27977	   0.11298	   1.28475	  -5.04495
11442.27011	   1.00000	   1.70952	   1.28580	   0.10505	   1.29008	  -4.67051
11443.09911	   1.00000	   1.35352	   1.29027	   0.09593	   1.29383	  -4.25227
11444.14211	   1.00000	   1.07079	   1.29637	   0.08577	   1.29920	  -3.78507
11445.45611	   1.00000	   0.84734	   1.30495	   0.07593	   1.30715	  -3.33008
11447.11111	   1.00000	   0.67072	   1.31782	   0.07003	   1.31967	  -3.04181
11449.20011	   1.00000	   0.53067	   1.33489	   0.06952	   1.33669	  -2.98115
11451.83711	   1.00000	   0.41976	   1.35206	   0.07840	   1.35434	  -3.31848
11455.16811	   1.00000	   0.33183	   1.36265	   0.09615	   1.36604	  -4.03616
11459.37411	   1.00000	   0.26261	   1.36255	   0.11556	   1.36744	  -4.84792
11464.68211	   1.00000	   0.20791	   1.35523	   0.12826	   1.36128	  -5.40636
11471.38711	   1.00000	   0.16452	   1.34792	   0.13220	   1.35439	  -5.60145
11479.86311	   1.00000	   0.13007	   1.34936	   0.12800	   1.35541	  -5.41902
11490.55311	   1.00000	   0.10309	   1.36428	   0.12411	   1.36991	  -5.19792
11504.06711	   1.00000	   0.08153	   1.39191	   0.12793	   1.39778	  -5.25113
11521.16511	   1.00000	   0.06443	   1.42698	   0.14712	   1.43454	  -5.88613
11542.75112	   1.00000	   0.05102	   1.46932	   0.18188	   1.48053	  -7.05660
11569.99412	   1.00000	   0.04042	   1.50766	   0.24033	   1.52670	  -9.05709
11604.48912	   1.00000	   0.03192	   1.52830	   0.31291	   1.56000	 -11.57098
11648.03712	   1.00000	   0.02528	   1.53086	   0.37929	   1.57715	 -13.91542
11703.10212	   1.00000	   0.01999	   1.53333	   0.42614	   1.59145	 -15.53173
27192.63423	   2.00000	20004.45300	   0.29511	  -0.01629	   0.29556	   3.15962
27192.77623	   2.00000	15829.12600	   0.30145	   0.00419	   0.30148	  -0.79687
27192.91823	   2.00000	12516.70300	   0.30969	   0.02241	   0.31050	  -4.13964
27193.06023	   2.00000	9909.44240	   0.31985	   0.03571	   0.32184	  -6.37108
27193.22523	   2.00000	7835.48000	   0.33044	   0.04896	   0.33405	  -8.42813
27193.42523	   2.00000	6217.24610	   0.34068	   0.06052	   0.34601	 -10.07311
27193.66323	   2.00000	4905.29100	   0.35421	   0.07318	   0.36169	 -11.67391
27193.90223	   2.00000	3881.27370	   0.36755	   0.08228	   0.37665	 -12.61837
27194.14023	   2.00000	3070.98270	   0.38172	   0.09161	   0.39256	 -13.49604
27194.37823	   2.00000	2430.77780	   0.39661	   0.10234	   0.40960	 -14.46915
27194.61623	   2.00000	1923.15370	   0.41403	   0.11077	   0.42860	 -14.97786
27194.85423	   2.00000	1522.43580	   0.43228	   0.12115	   0.44893	 -15.65559
27195.09223	   2.00000	1203.84460	   0.45059	   0.13040	   0.46908	 -16.14012
27195.33123	   2.00000	 952.86591	   0.47018	   0.13850	   0.49015	 -16.41360
27195.56823	   2.00000	 754.27557	   0.49169	   0.14727	   0.51327	 -16.67391
27195.80623	   2.00000	 596.71857	   0.51585	   0.15616	   0.53897	 -16.84221
27196.04323	   2.00000	 471.96338	   0.53910	   0.16488	   0.56375	 -17.00649
27196.28223	   2.00000	 373.20856	   0.56389	   0.17431	   0.59022	 -17.17729
27196.52023	   2.00000	 295.47278	   0.59046	   0.18391	   0.61844	 -17.30000
27196.75923	   2.00000	 233.87738	   0.61875	   0.19370	   0.64836	 -17.38262
27196.99723	   2.00000	 185.05922	   0.64852	   0.20064	   0.67885	 -17.19102
27197.23323	   2.00000	 146.35823	   0.68033	   0.21103	   0.71231	 -17.23333
27197.47023	   2.00000	 115.77804	   0.71212	   0.21895	   0.74502	 -17.09059
27197.70423	   2.00000	  91.67210	   0.74818	   0.22641	   0.78168	 -16.83655
27197.94923	   2.00000	  72.51701	   0.78520	   0.23476	   0.81955	 -16.64591
27198.17923	   2.00000	  57.36816	   0.82525	   0.24129	   0.85980	 -16.29787
27198.41523	   2.00000	  45.36290	   0.86278	   0.24528	   0.89697	 -15.86990
27198.64723	   2.00000	  35.93134	   0.90068	   0.24627	   0.93374	 -15.29257
27198.89823	   2.00000	  28.40909	   0.94471	   0.25048	   0.97736	 -14.84965
27199.11223	   2.00000	  22.48202	   0.98616	   0.24986	   1.01732	 -14.21789
27199.37723	   2.00000	  17.79613	   1.02984	   0.24601	   1.05881	 -13.43508
27199.62923	   2.00000	  14.06813	   1.07259	   0.24085	   1.09930	 -12.65609
27199.84523	   2.00000	  11.14480	   1.11440	   0.22855	   1.13760	 -11.59012
27200.11323	   2.00000	   8.81772	   1.15559	   0.21474	   1.17537	 -10.52711
27200.29123	   2.00000	   6.97545	   1.18711	   0.19692	   1.20333	  -9.41877
27200.50923	   2.00000	   5.51730	   1.21576	   0.17806	   1.22873	  -8.33243
27200.77823	   2.00000	   4.36941	   1.24165	   0.15579	   1.25138	  -7.15159
27201.11423	   2.00000	   3.45686	   1.26606	   0.13969	   1.27374	  -6.29639
27201.53223	   2.00000	   2.73547	   1.28070	   0.12834	   1.28712	  -5.72254
27202.05723	   2.00000	   2.16054	   1.29041	   0.11640	   1.29564	  -5.15458
27202.71623	   2.00000	   1.70952	   1.29750	   0.10411	   1.30167	  -4.58749
27203.54523	   2.00000	   1.35352	   1.30551	   0.09257	   1.30879	  -4.05599
27204.58823	   2.00000	   1.07079	   1.31553	   0.08160	   1.31806	  -3.54961
27205.90123	   2.00000	   0.84734	   1.32892	   0.07417	   1.33098	  -3.19459
27207.55723	   2.00000	   0.67072	   1.34415	   0.07281	   1.34612	  -3.10062
27209.64623	   2.00000	   0.53067	   1.35908	   0.08046	   1.36146	  -3.38803
27212.28223	   2.00000	   0.41976	   1.36671	   0.09521	   1.37002	  -3.98512
27215.61323	   2.00000	   0.33183	   1.36577	   0.10958	   1.37016	  -4.58717
27219.81923	   2.00000	   0.26261	   1.35902	   0.11743	   1.36408	  -4.93837
27225.12723	   2.00000	   0.20791	   1.35484	   0.11611	   1.35980	  -4.89834
27231.83123	   2.00000	   0.16452	   1.35922	   0.11059	   1.36371	  -4.65150
27240.30823	   2.00000	   0.13007	   1.37575	   0.10633	   1.37985	  -4.41936
27250.99823	   2.00000	   0.10309	   1.40372	   0.11005	   1.40803	  -4.48273
27264.51223	   2.00000	   0.08153	   1.43927	   0.12940	   1.44507	  -5.13729
27281.61023	   2.00000	   0.06443	   1.47282	   0.16488	   1.48202	  -6.38742
27303.19623	   2.00000	   0.05102	   1.50163	   0.21933	   1.51756	  -8.30984
27330.43923	   2.00000	   0.04042	   1.51131	   0.28234	   1.53745	 -10.58179
27364.93423	   2.00000	   0.03192	   1.50687	   0.33519	   1.54370	 -12.54081
27408.48224	   2.00000	   0.02528	   1.50714	   0.36956	   1.55178	 -13.77736
27463.54724	   2.00000	   0.01999	   1.53045	   0.39415	   1.58039	 -14.44221
42607.87306	   3.00000	20004.45300	   0.29648	  -0.01479	   0.29685	   2.85544
42608.01506	   3.00000	15829.12600	   0.30293	   0.00441	   0.30296	  -0.83324
42608.15706	   3.00000	12516.70300	   0.31239	   0.02081	   0.31308	  -3.81156
42608.29906	   3.00000	9909.44240	   0.32147	   0.03635	   0.32351	  -6.45072
42608.46406	   3.00000	7835.48000	   0.33110	   0.04924	   0.33474	  -8.45843
42608.66406	   3.00000	6217.24610	   0.34280	   0.06192	   0.34835	 -10.23953
42608.90306	   3.00000	4905.29100	   0.35512	   0.07244	   0.36243	 -11.52946
42609.14106	   3.00000	3881.27370	   0.36625	   0.08412	   0.37579	 -12.93462
42609.37906	   3.00000	3070.98270	   0.38433	   0.09244	   0.39529	 -13.52330
42609.61706	   3.00000	2430.77780	   0.39829	   0.10142	   0.41100	 -14.28644
42609.85506	   3.00000	1923.15370	   0.41397	   0.11178	   0.42880	 -15.11059
42610.09306	   3.00000	1522.43580	   0.43240	   0.12101	   0.44902	 -15.63425
42610.33106	   3.00000	1203.84460	   0.45020	   0.13084	   0.46883	 -16.20508
42610.57006	   3.00000	 952.86591	   0.47090	   0.13933	   0.49108	 -16.48272
42610.80806	   3.00000	 754.27557	   0.49253	   0.14763	   0.51418	 -16.68586
42611.04606	   3.00000	 596.71857	   0.51714	   0.15667	   0.54035	 -16.85498
42611.28306	   3.00000	 471.96338	   0.53958	   0.16580	   0.56448	 -17.08109
42611.52206	   3.00000	 373.20856	   0.56590	   0.17531	   0.59244	 -17.21252
42611.76006	   3.00000	 295.47278	   0.59146	   0.18374	   0.61935	 -17.25787
42611.99906	   3.00000	 233.87738	   0.62124	   0.19292	   0.65050	 -17.25196
42612.23706	   3.00000	 185.05922	   0.65007	   0.20147	   0.68058	 -17.21965
42612.47306	   3.00000	 146.35823	   0.68197	   0.21245	   0.71430	 -17.30298
42612.71006	   3.00000	 115.77804	   0.71478	   0.21972	   0.74779	 -17.08716
42612.94406	   3.00000	  91.67210	   0.75167	   0.22750	   0.78534	 -16.83891
42613.18906	   3.00000	  72.51701	   0.78643	   0.23515	   0.82084	 -16.64742
42613.41906	   3.00000	  57.36816	   0.82649	   0.24254	   0.86134	 -16.35478
42613.65506	   3.00000	  45.36290	   0.86697	   0.24559	   0.90108	 -15.81578
42613.88806	   3.00000	  35.93134	   0.90459	   0.25068	   0.93868	 -15.48927
42614.13806	   3.00000	  28.40909	   0.94773	   0.24985	   0.98011	 -14.76860
42614.35206	   3.00000	  22.48202	   0.98946	   0.24925	   1.02037	 -14.13872
42614.61706	   3.00000	  17.79613	   1.03339	   0.24749	   1.06261	 -13.46837
42614.87006	   3.00000	  14.06813	   1.07736	   0.24045	   1.10387	 -12.58121
42615.08606	   3.00000	  11.14480	   1.11738	   0.22788	   1.14038	 -11.52683
42615.35306	   3.00000	   8.81772	   1.15823	   0.21417	   1.17786	 -10.47637
42615.53106	   3.00000	   6.97545	   1.19287	   0.19855	   1.20928	  -9.45022
42615.74906	   3.00000	   5.51730	   1.22082	   0.17735	   1.23364	  -8.26559
42616.01806	   3.00000	   4.36941	   1.24482	   0.15822	   1.25484	  -7.24358
42616.35406	   3.00000	   3.45686	   1.26533	   0.13853	   1.27289	  -6.24807
42616.77206	   3.00000	   2.73547	   1.28744	   0.12454	   1.29345	  -5.52521
42617.29706	   3.00000	   2.16054	   1.30006	   0.11553	   1.30518	  -5.07816
42617.95706	   3.00000	   1.70952	   1.30807	   0.10789	   1.31251	  -4.71499
42618.78506	   3.00000	   1.35352	   1.31226	   0.09887	   1.31598	  -4.30856
42619.82806	   3.00000	   1.07079	   1.31696	   0.08975	   1.32001	  -3.89884
42621.14206	   3.00000	   0.84734	   1.32527	   0.08031	   1.32770	  -3.46794
42622.79806	   3.00000	   0.67072	   1.33655	   0.07263	   1.33852	  -3.11061
42624.88606	   3.00000	   0.53067	   1.35293	   0.06929	   1.35471	  -2.93197
42627.52306	   3.00000	   0.41976	   1.37174	   0.07635	   1.37387	  -3.18561
42630.85406	   3.00000	   0.33183	   1.38597	   0.09342	   1.38912	  -3.85608
42635.06006	   3.00000	   0.26261	   1.38972	   0.11441	   1.39442	  -4.70636
42640.36807	   3.00000	   0.20791	   1.38405	   0.13121	   1.39025	  -5.41545
42647.07307	   3.00000	   0.16452	   1.37584	   0.13836	   1.38278	  -5.74268
42655.54907	   3.00000	   0.13007	   1.37421	   0.13681	   1.38100	  -5.68525
42666.23907	   3.00000	   0.10309	   1.38527	   0.13353	   1.39169	  -5.50605
42679.75307	   3.00000	   0.08153	   1.40933	   0.13514	   1.41580	  -5.47740
42696.85107	   3.00000	   0.06443	   1.44236	   0.15097	   1.45024	  -5.97524
42718.43707	   3.00000	   0.05102	   1.48597	   0.17991	   1.49682	  -6.90325
42745.68007	   3.00000	   0.04042	   1.52916	   0.23296	   1.54680	  -8.66223
42780.17607	   3.00000	   0.03192	   1.55910	   0.30493	   1.58864	 -11.06616
42823.72307	   3.00000	   0.02528	   1.56921	   0.37769	   1.61402	 -13.53312
42878.78808	   3.00000	   0.01999	   1.57272	   0.43370	   1.63143	 -15.41698
57824.88054	   4.00000	20004.45300	   0.29656	  -0.01622	   0.29701	   3.12961
57825.02254	   4.00000	15829.12600	   0.30216	   0.00248	   0.30217	  -0.46971
57825.16454	   4.00000	12516.70300	   0.31153	   0.02051	   0.31221	  -3.76612
57825.30654	   4.00000	9909.44240	   0.32079	   0.03456	   0.32264	  -6.14932
57825.47154	   4.00000	7835.48000	   0.33072	   0.05020	   0.33451	  -8.63175
57825.67154	   4.00000	6217.24610	   0.34162	   0.06190	   0.34718	 -10.27018
57825.91054	   4.00000	4905.29100	   0.35518	   0.07171	   0.36235	 -11.41485
57826.14854	   4.00000	3881.27370	   0.36952	   0.08412	   0.37898	 -12.82445
57826.38654	   4.00000	3070.98270	   0.38341	   0.09166	   0.39422	 -13.44562
57826.62454	   4.00000	2430.77780	   0.39868	   0.10279	   0.41172	 -14.45715
57826.86254	   4.00000	1923.15370	   0.41556	   0.11167	   0.43030	 -15.04144
57827.10054	   4.00000	1522.43580	   0.43352	   0.12109	   0.45011	 -15.60650
57827.33854	   4.00000	1203.84460	   0.45246	   0.13073	   0.47097	 -16.11581
57827.57754	   4.00000	 952.86591	   0.47276	   0.13913	   0.49280	 -16.39898
57827.81554	   4.00000	 754.27557	   0.49369	   0.14824	   0.51547	 -16.71391
57828.05254	   4.00000	 596.71857	   0.51596	   0.15714	   0.53936	 -16.93831
57828.28954	   4.00000	 471.96338	   0.54015	   0.16653	   0.56523	 -17.13492
57828.52954	   4.00000	 373.20856	   0.56765	   0.17530	   0.59410	 -17.16156
57828.76654	   4.00000	 295.47278	   0.59148	   0.18403	   0.61945	 -17.28267
57829.00554	   4.00000	 233.87738	   0.62217	   0.19273	   0.65134	 -17.21098
57829.24454	   4.00000	 185.05922	   0.65053	   0.20314	   0.68151	 -17.34242
57829.48054	   4.00000	 146.35823	   0.68220	   0.21092	   0.71406	 -17.18072
57829.71654	   4.00000	 115.77804	   0.71757	   0.21941	   0.75037	 -17.00217
57829.95054	   4.00000	  91.67210	   0.75231	   0.22823	   0.78617	 -16.87666
57830.19654	   4.00000	  72.51701	   0.78702	   0.23431	   0.82116	 -16.57933
57830.42554	   4.00000	  57.36816	   0.82525	   0.23940	   0.85927	 -16.17720
57830.66254	   4.00000	  45.36290	   0.86579	   0.24521	   0.89984	 -15.81353
57830.89454	   4.00000	  35.93134	   0.90665	   0.24854	   0.94010	 -15.32962
57831.14454	   4.00000	  28.40909	   0.94773	   0.25040	   0.98026	 -14.80011
57831.35954	   4.00000	  22.48202	   0.98938	   0.25042	   1.02059	 -14.20390
57831.62454	   4.00000	  17.79613	   1.03326	   0.24844	   1.06271	 -13.51985
57831.87654	   4.00000	  14.06813	   1.07576	   0.23976	   1.10216	 -12.56453
57832.09254	   4.00000	  11.14480	   1.11710	   0.23026	   1.14058	 -11.64693
57832.35954	   4.00000	   8.81772	   1.15755	   0.21454	   1.17727	 -10.50008
57832.53754	   4.00000	   6.97545	   1.19607	   0.19753	   1.21227	  -9.37758
57832.75654	   4.00000	   5.51730	   1.22119	   0.17955	   1.23432	  -8.36437
57833.02554	   4.00000	   4.36941	   1.24679	   0.16009	   1.25703	  -7.31663
57833.36054	   4.00000	   3.45686	   1.26676	   0.14088	   1.27457	  -6.34601
57833.77954	   4.00000	   2.73547	   1.28507	   0.12226	   1.29087	  -5.43476
57834.30454	   4.00000	   2.16054	   1.30257	   0.11213	   1.30738	  -4.91991
57834.96354	   4.00000	   1.70952	   1.31366	   0.10701	   1.31802	  -4.65703
57835.79154	   4.00000	   1.35352	   1.31833	   0.10240	   1.32230	  -4.44135
57836.83454	   4.00000	   1.07079	   1.32157	   0.09517	   1.32500	  -4.11908
57838.14854	   4.00000	   0.84734	   1.32554	   0.08628	   1.32835	  -3.72431
57839.80454	   4.00000	   0.67072	   1.33279	   0.07897	   1.33513	  -3.39104
57841.89254	   4.00000	   0.53067	   1.34436	   0.07114	   1.34624	  -3.02915
57844.52954	   4.00000	   0.41976	   1.36334	   0.06934	   1.36510	  -2.91160
57847.86154	   4.00000	   0.33183	   1.38397	   0.07859	   1.38620	  -3.24993
57852.06654	   4.00000	   0.26261	   1.39964	   0.09901	   1.40314	  -4.04637
57857.37554	   4.00000	   0.20791	   1.40442	   0.12415	   1.40990	  -5.05194
57864.07954	   4.00000	   0.16452	   1.39823	   0.14497	   1.40573	  -5.91942
57872.55654	   4.00000	   0.13007	   1.38936	   0.15531	   1.39801	  -6.37831
57883.24654	   4.00000	   0.10309	   1.38724	   0.15593	   1.39598	  -6.41312
57896.76054	   4.00000	   0.08153	   1.39878	   0.15482	   1.40732	  -6.31601
57913.85755	   4.00000	   0.06443	   1.42310	   0.16214	   1.43230	  -6.49985
57935.44455	   4.00000	   0.05102	   1.46017	   0.17695	   1.47085	  -6.90951
57962.68755	   4.00000	   0.04042	   1.50748	   0.21030	   1.52207	  -7.94160
57997.18255	   4.00000	   0.03192	   1.55876	   0.26768	   1.58158	  -9.74400
58040.73055	   4.00000	   0.02528	   1.59713	   0.34622	   1.63423	 -12.23106
58095.79555	   4.00000	   0.01999	   1.61663	   0.42879	   1.67253	 -14.85474
72911.06196	   5.00000	20004.45300	   0.29710	  -0.01565	   0.29752	   3.01457
72911.20396	   5.00000	15829.12600	   0.30478	   0.00423	   0.30481	  -0.79505
72911.34596	   5.00000	12516.70300	   0.31152	   0.02148	   0.31226	  -3.94498
72911.48796	   5.00000	9909.44240	   0.32278	   0.03715	   0.32491	  -6.56599
72911.65296	   5.00000	7835.48000	   0.33189	   0.04943	   0.33555	  -8.47124
72911.85296	   5.00000	6217.24610	   0.34397	   0.06199	   0.34951	 -10.21683
72912.09196	   5.00000	4905.29100	   0.35736	   0.07292	   0.36472	 -11.53325
72912.32996	   5.00000	3881.27370	   0.36886	   0.08445	   0.37840	 -12.89585
72912.56796	   5.00000	3070.98270	   0.38362	   0.09358	   0.39487	 -13.70937
72912.80596	   5.00000	2430.77780	   0.39886	   0.10236	   0.41178	 -14.39388
72913.04396	   5.00000	1923.15370	   0.41463	   0.11218	   0.42954	 -15.13963
72913.28196	   5.00000	1522.43580	   0.43267	   0.12232	   0.44963	 -15.78589
72913.51996	   5.00000	1203.84460	   0.45268	   0.12936	   0.47080	 -15.94869
72913.75896	   5.00000	 952.86591	   0.47345	   0.13831	   0.49324	 -16.28482
