time/s	           cycle number	freq/Hz	           Re(Z)/Ohm	  -Im(Z)/Ohm	   |Z|/Ohm	   Phase(Z)/deg
12970.43118	   1.00000	20004.45300	   0.26666	  -0.01748	   0.26724	   3.75029
12970.57418	   1.00000	15829.12600	   0.27312	   0.00401	   0.27315	  -0.84215
12970.71618	   1.00000	12516.70300	   0.28197	   0.02037	   0.28271	  -4.13154
12970.85818	   1.00000	9909.44240	   0.28941	   0.03415	   0.29142	  -6.72921
12971.02218	   1.00000	7835.48000	   0.29944	   0.04672	   0.30307	  -8.86839
12971.22318	   1.00000	6217.24610	   0.31210	   0.06026	   0.31787	 -10.92766
12971.46118	   1.00000	4905.29100	   0.32217	   0.07105	   0.32991	 -12.43693
12971.69918	   1.00000	3881.27370	   0.33687	   0.08227	   0.34677	 -13.72340
12971.93818	   1.00000	3070.98270	   0.35090	   0.09087	   0.36248	 -14.51914
12972.17518	   1.00000	2430.77780	   0.36492	   0.10223	   0.37897	 -15.64968
12972.41418	   1.00000	1923.15370	   0.38216	   0.11009	   0.39770	 -16.07083
12972.65218	   1.00000	1522.43580	   0.39960	   0.11916	   0.41699	 -16.60439
12972.89018	   1.00000	1203.84460	   0.41923	   0.13098	   0.43921	 -17.35034
12973.12918	   1.00000	 952.86591	   0.43810	   0.13908	   0.45965	 -17.61241
12973.36718	   1.00000	 754.27557	   0.46000	   0.14685	   0.48287	 -17.70584
12973.60418	   1.00000	 596.71857	   0.48267	   0.15628	   0.50734	 -17.94097
12973.84218	   1.00000	 471.96338	   0.50613	   0.16624	   0.53273	 -18.18272
12974.08118	   1.00000	 373.20856	   0.53014	   0.17598	   0.55859	 -18.36397
12974.31818	   1.00000	 295.47278	   0.55793	   0.18515	   0.58785	 -18.35810
12974.55818	   1.00000	 233.87738	   0.58709	   0.19388	   0.61828	 -18.27522
12974.79618	   1.00000	 185.05922	   0.61718	   0.20409	   0.65005	 -18.29777
12975.03218	   1.00000	 146.35823	   0.64493	   0.21475	   0.67974	 -18.41721
12975.26818	   1.00000	 115.77804	   0.67785	   0.22433	   0.71401	 -18.31171
12975.50318	   1.00000	  91.67210	   0.71570	   0.23321	   0.75274	 -18.04822
12975.74818	   1.00000	  72.51701	   0.75149	   0.23950	   0.78873	 -17.67725
12975.97718	   1.00000	  57.36816	   0.79498	   0.24093	   0.83069	 -16.86006
12976.21418	   1.00000	  45.36290	   0.83145	   0.24455	   0.86667	 -16.38983
12976.44618	   1.00000	  35.93134	   0.86771	   0.25887	   0.90551	 -16.61183
12976.69618	   1.00000	  28.40909	   0.90377	   0.25363	   0.93869	 -15.67577
12976.91118	   1.00000	  22.48202	   0.94553	   0.26107	   0.98091	 -15.43521
12977.17518	   1.00000	  17.79613	   0.99320	   0.27375	   1.03024	 -15.40963
12977.42818	   1.00000	  14.06813	   1.05404	   0.25330	   1.08405	 -13.51248
12977.64418	   1.00000	  11.14480	   1.07365	   0.27070	   1.10725	 -14.15097
12977.91118	   1.00000	   8.81772	   1.13349	   0.22701	   1.15600	 -11.32522
12978.08918	   1.00000	   6.97545	   1.20584	   0.23942	   1.22938	 -11.22983
12978.30718	   1.00000	   5.51730	   1.21032	   0.25809	   1.23754	 -12.03764
12978.57718	   1.00000	   4.36941	   1.20832	   0.21373	   1.22708	 -10.03078
12978.91218	   1.00000	   3.45686	   1.24774	   0.14072	   1.25565	  -6.43440
12979.33018	   1.00000	   2.73547	   1.33370	   0.09743	   1.33726	  -4.17800
12979.85618	   1.00000	   2.16054	   1.41668	   0.11977	   1.42173	  -4.83260
12980.51518	   1.00000	   1.70952	   1.44122	   0.18840	   1.45348	  -7.44782
12981.34318	   1.00000	   1.35352	   1.38988	   0.24765	   1.41177	 -10.10286
12982.38618	   1.00000	   1.07079	   1.28819	   0.24243	   1.31080	 -10.65814
12983.70018	   1.00000	   0.84734	   1.19614	   0.14868	   1.20535	  -7.08571
12985.35518	   1.00000	   0.67072	   1.17401	   0.00703	   1.17403	  -0.34296
12987.44418	   1.00000	   0.53067	   1.27578	  -0.16855	   1.28687	   7.52627
12990.08118	   1.00000	   0.41976	   1.49705	  -0.25122	   1.51798	   9.52601
12993.41218	   1.00000	   0.33183	   1.76218	  -0.16144	   1.76956	   5.23456
12997.61818	   1.00000	   0.26261	   1.93506	   0.10699	   1.93802	  -3.16480
13002.92618	   1.00000	   0.20791	   1.90077	   0.45922	   1.95545	 -13.58219
13009.63018	   1.00000	   0.16452	   1.63622	   0.73751	   1.79476	 -24.26311
13018.10718	   1.00000	   0.13007	   1.22799	   0.78471	   1.45730	 -32.57937
13028.79718	   1.00000	   0.10309	   0.87078	   0.53598	   1.02252	 -31.61282
13042.31118	   1.00000	   0.08153	   0.75903	   0.07531	   0.76276	  -5.66635
13059.40918	   1.00000	   0.06443	   0.94661	  -0.35493	   1.01097	  20.55351
13080.99518	   1.00000	   0.05102	   1.50454	  -0.68988	   1.65517	  24.63305
13108.23818	   1.00000	   0.04042	   2.30642	  -0.65823	   2.39851	  15.92830
13142.73319	   1.00000	   0.03192	   3.11954	  -0.11272	   3.12158	   2.06943
13186.28119	   1.00000	   0.02528	   3.55791	   0.93267	   3.67812	 -14.68899
13241.34619	   1.00000	   0.01999	   3.28194	   2.13380	   3.91461	 -33.03045
28894.69949	   2.00000	20004.45300	   0.26900	  -0.01839	   0.26963	   3.91146
28894.84249	   2.00000	15829.12600	   0.27568	   0.00345	   0.27570	  -0.71778
28894.98449	   2.00000	12516.70300	   0.28299	   0.02096	   0.28377	  -4.23529
28895.12649	   2.00000	9909.44240	   0.29397	   0.03484	   0.29603	  -6.75926
28895.29049	   2.00000	7835.48000	   0.30382	   0.04898	   0.30774	  -9.15814
28895.49149	   2.00000	6217.24610	   0.31317	   0.06064	   0.31898	 -10.95853
28895.72949	   2.00000	4905.29100	   0.32535	   0.07176	   0.33316	 -12.43755
28895.96849	   2.00000	3881.27370	   0.33999	   0.08286	   0.34994	 -13.69721
28896.20649	   2.00000	3070.98270	   0.35332	   0.09274	   0.36528	 -14.70675
28896.44449	   2.00000	2430.77780	   0.36866	   0.10181	   0.38246	 -15.43812
28896.68249	   2.00000	1923.15370	   0.38653	   0.11294	   0.40269	 -16.28812
28896.92049	   2.00000	1522.43580	   0.40445	   0.12106	   0.42218	 -16.66418
28897.15849	   2.00000	1203.84460	   0.42293	   0.13038	   0.44257	 -17.13360
28897.39749	   2.00000	 952.86591	   0.44261	   0.13926	   0.46400	 -17.46507
28897.63549	   2.00000	 754.27557	   0.46591	   0.14906	   0.48917	 -17.74106
28897.87249	   2.00000	 596.71857	   0.48629	   0.15713	   0.51105	 -17.90693
28898.11049	   2.00000	 471.96338	   0.51229	   0.16663	   0.53871	 -18.01802
28898.34949	   2.00000	 373.20856	   0.53663	   0.17789	   0.56535	 -18.34005
28898.58649	   2.00000	 295.47278	   0.56307	   0.18514	   0.59273	 -18.20127
28898.82649	   2.00000	 233.87738	   0.59213	   0.19454	   0.62327	 -18.18729
28899.06449	   2.00000	 185.05922	   0.62119	   0.20558	   0.65432	 -18.31195
28899.30049	   2.00000	 146.35823	   0.65506	   0.21360	   0.68901	 -18.05998
28899.53649	   2.00000	 115.77804	   0.68748	   0.22344	   0.72288	 -18.00525
28899.77149	   2.00000	  91.67210	   0.72461	   0.22958	   0.76011	 -17.58017
28900.01649	   2.00000	  72.51701	   0.76378	   0.24124	   0.80097	 -17.52881
28900.24549	   2.00000	  57.36816	   0.79707	   0.25175	   0.83588	 -17.52853
28900.48249	   2.00000	  45.36290	   0.83745	   0.25747	   0.87613	 -17.08950
28900.71449	   2.00000	  35.93134	   0.88417	   0.25298	   0.91965	 -15.96663
28900.96449	   2.00000	  28.40909	   0.92839	   0.26536	   0.96556	 -15.95126
28901.17949	   2.00000	  22.48202	   0.97342	   0.26373	   1.00851	 -15.15913
28901.44449	   2.00000	  17.79613	   1.01297	   0.25553	   1.04470	 -14.15796
28901.69649	   2.00000	  14.06813	   1.03766	   0.27126	   1.07253	 -14.64997
28901.91249	   2.00000	  11.14480	   1.11356	   0.24971	   1.14122	 -12.63929
28902.17949	   2.00000	   8.81772	   1.13691	   0.27830	   1.17048	 -13.75492
28902.35749	   2.00000	   6.97545	   1.16270	   0.23651	   1.18651	 -11.49783
28902.57649	   2.00000	   5.51730	   1.23820	   0.18905	   1.25255	  -8.68113
28902.84549	   2.00000	   4.36941	   1.31795	   0.21034	   1.33463	  -9.06778
28903.18049	   2.00000	   3.45686	   1.32704	   0.24398	   1.34928	 -10.41752
28903.59949	   2.00000	   2.73547	   1.28893	   0.23136	   1.30953	 -10.17612
28904.12449	   2.00000	   2.16054	   1.26024	   0.15899	   1.27023	  -7.19058
28904.78349	   2.00000	   1.70952	   1.28917	   0.05640	   1.29040	  -2.50512
28905.61249	   2.00000	   1.35352	   1.38449	  -0.01951	   1.38462	   0.80745
28906.65449	   2.00000	   1.07079	   1.51766	  -0.01490	   1.51774	   0.56249
28907.96849	   2.00000	   0.84734	   1.61889	   0.08521	   1.62113	  -3.01286
28909.62449	   2.00000	   0.67072	   1.63729	   0.22608	   1.65282	  -7.86166
28911.71349	   2.00000	   0.53067	   1.52113	   0.38021	   1.56793	 -14.03360
28914.35049	   2.00000	   0.41976	   1.30429	   0.41709	   1.36935	 -17.73334
28917.68149	   2.00000	   0.33183	   1.08669	   0.28211	   1.12272	 -14.55307
28921.88749	   2.00000	   0.26261	   0.99905	  -0.00495	   0.99906	   0.28391
28927.19549	   2.00000	   0.20791	   1.13614	  -0.33402	   1.18422	  16.38322
28933.89949	   2.00000	   0.16452	   1.50796	  -0.53395	   1.59970	  19.49833
28942.37649	   2.00000	   0.13007	   2.00030	  -0.45755	   2.05196	  12.88436
28953.06649	   2.00000	   0.10309	   2.39302	  -0.06199	   2.39382	   1.48384
28966.58049	   2.00000	   0.08153	   2.49556	   0.53321	   2.55189	 -12.06056
28983.67850	   2.00000	   0.06443	   2.30800	   1.05208	   2.53648	 -24.50540
29005.26450	   2.00000	   0.05102	   1.76434	   1.42979	   2.27095	 -39.02079
29032.50750	   2.00000	   0.04042	   1.07634	   1.42035	   1.78210	 -52.84525
29067.00250	   2.00000	   0.03192	   0.51374	   0.89540	   1.03231	 -60.15440
29110.54950	   2.00000	   0.02528	   0.45411	  -0.02846	   0.45500	   3.58676
29165.61550	   2.00000	   0.01999	   1.14726	  -0.98389	   1.51138	  40.61643
44575.15574	   3.00000	20004.45300	   0.27116	  -0.01686	   0.27168	   3.55748
44575.29874	   3.00000	15829.12600	   0.27607	   0.00348	   0.27609	  -0.72159
44575.44074	   3.00000	12516.70300	   0.28424	   0.01850	   0.28484	  -3.72306
44575.58274	   3.00000	9909.44240	   0.29429	   0.03605	   0.29649	  -6.98467
44575.74674	   3.00000	7835.48000	   0.30511	   0.04824	   0.30890	  -8.98457
44575.94774	   3.00000	6217.24610	   0.31468	   0.06090	   0.32052	 -10.95383
44576.18574	   3.00000	4905.29100	   0.32798	   0.07227	   0.33585	 -12.42599
44576.42374	   3.00000	3881.27370	   0.34055	   0.08290	   0.35050	 -13.68148
44576.66174	   3.00000	3070.98270	   0.35519	   0.09359	   0.36732	 -14.76163
44576.89974	   3.00000	2430.77780	   0.36965	   0.10112	   0.38323	 -15.29880
44577.13874	   3.00000	1923.15370	   0.38812	   0.11013	   0.40344	 -15.84167
44577.37674	   3.00000	1522.43580	   0.40743	   0.12112	   0.42505	 -16.55662
44577.61474	   3.00000	1203.84460	   0.42504	   0.12973	   0.44439	 -16.97273
44577.85274	   3.00000	 952.86591	   0.44516	   0.14113	   0.46699	 -17.58986
44578.09174	   3.00000	 754.27557	   0.46554	   0.14955	   0.48897	 -17.80969
44578.32874	   3.00000	 596.71857	   0.48796	   0.15918	   0.51326	 -18.06727
44578.56674	   3.00000	 471.96338	   0.51280	   0.16839	   0.53974	 -18.17871
44578.80574	   3.00000	 373.20856	   0.53895	   0.17755	   0.56744	 -18.23354
44579.04274	   3.00000	 295.47278	   0.56538	   0.18702	   0.59551	 -18.30316
44579.28274	   3.00000	 233.87738	   0.59348	   0.19735	   0.62544	 -18.39342
44579.52074	   3.00000	 185.05922	   0.62414	   0.20614	   0.65730	 -18.27684
44579.75674	   3.00000	 146.35823	   0.65436	   0.21651	   0.68925	 -18.30823
44579.99274	   3.00000	 115.77804	   0.69063	   0.22758	   0.72716	 -18.23857
44580.22674	   3.00000	  91.67210	   0.72802	   0.23700	   0.76562	 -18.03239
44580.47274	   3.00000	  72.51701	   0.76024	   0.24289	   0.79809	 -17.71835
44580.70174	   3.00000	  57.36816	   0.80421	   0.24420	   0.84047	 -16.89124
44580.93874	   3.00000	  45.36290	   0.84397	   0.24946	   0.88006	 -16.46633
44581.17074	   3.00000	  35.93134	   0.88189	   0.26408	   0.92058	 -16.67025
44581.42074	   3.00000	  28.40909	   0.91768	   0.25971	   0.95372	 -15.80160
44581.63574	   3.00000	  22.48202	   0.95776	   0.26852	   0.99469	 -15.66128
44581.89974	   3.00000	  17.79613	   1.00771	   0.28036	   1.04598	 -15.54725
44582.15274	   3.00000	  14.06813	   1.06896	   0.25779	   1.09961	 -13.55870
44582.36874	   3.00000	  11.14480	   1.08983	   0.27916	   1.12502	 -14.36732
44582.63574	   3.00000	   8.81772	   1.14924	   0.23382	   1.17278	 -11.50029
44582.81374	   3.00000	   6.97545	   1.22764	   0.24529	   1.25190	 -11.29941
44583.03174	   3.00000	   5.51730	   1.23470	   0.26842	   1.26354	 -12.26525
44583.30174	   3.00000	   4.36941	   1.22915	   0.22629	   1.24981	 -10.43145
44583.63674	   3.00000	   3.45686	   1.26660	   0.14815	   1.27524	  -6.67122
44584.05474	   3.00000	   2.73547	   1.35675	   0.09995	   1.36042	  -4.21351
44584.57974	   3.00000	   2.16054	   1.44745	   0.12045	   1.45245	  -4.75693
44585.23974	   3.00000	   1.70952	   1.47877	   0.19237	   1.49123	  -7.41192
44586.06774	   3.00000	   1.35352	   1.42893	   0.25846	   1.45212	 -10.25246
44587.11074	   3.00000	   1.07079	   1.32160	   0.25998	   1.34693	 -11.12881
44588.42474	   3.00000	   0.84734	   1.22013	   0.16639	   1.23143	  -7.76575
44590.07974	   3.00000	   0.67072	   1.18926	   0.01836	   1.18940	  -0.88445
44592.16874	   3.00000	   0.53067	   1.28653	  -0.17319	   1.29814	   7.66708
44594.80574	   3.00000	   0.41976	   1.52287	  -0.27264	   1.54709	  10.15015
44598.13674	   3.00000	   0.33183	   1.80936	  -0.19058	   1.81937	   6.01265
44602.34174	   3.00000	   0.26261	   2.01007	   0.08850	   2.01202	  -2.52088
44607.64974	   3.00000	   0.20791	   1.99618	   0.47093	   2.05098	 -13.27419
44614.35374	   3.00000	   0.16452	   1.72836	   0.78696	   1.89908	 -24.48072
44622.83074	   3.00000	   0.13007	   1.29608	   0.86699	   1.55932	 -33.77978
44633.52074	   3.00000	   0.10309	   0.89658	   0.62643	   1.09374	 -34.94164
44647.03474	   3.00000	   0.08153	   0.75552	   0.14322	   0.76897	 -10.73398
44664.13274	   3.00000	   0.06443	   0.94303	  -0.32143	   0.99630	  18.82143
44685.71874	   3.00000	   0.05102	   1.53924	  -0.71379	   1.69669	  24.87847
44712.96174	   3.00000	   0.04042	   2.41254	  -0.70491	   2.51341	  16.28773
44747.45675	   3.00000	   0.03192	   3.31245	  -0.13448	   3.31518	   2.32481
44791.00475	   3.00000	   0.02528	   3.81493	   0.95045	   3.93155	 -13.98976
44846.06975	   3.00000	   0.01999	   3.58891	   2.21892	   4.21946	 -31.72734
60103.70021	   4.00000	20004.45300	   0.27121	  -0.01914	   0.27189	   4.03778
60103.84321	   4.00000	15829.12600	   0.27758	   0.00302	   0.27760	  -0.62400
60103.98521	   4.00000	12516.70300	   0.28647	   0.02067	   0.28722	  -4.12599
60104.12721	   4.00000	9909.44240	   0.29348	   0.03361	   0.29540	  -6.53411
60104.29121	   4.00000	7835.48000	   0.30664	   0.04668	   0.31017	  -8.65481
60104.49221	   4.00000	6217.24610	   0.31601	   0.06160	   0.32196	 -11.03134
60104.73021	   4.00000	4905.29100	   0.32731	   0.07187	   0.33511	 -12.38464
60104.96921	   4.00000	3881.27370	   0.34237	   0.08264	   0.35220	 -13.57041
60105.20722	   4.00000	3070.98270	   0.35786	   0.09329	   0.36982	 -14.61087
60105.44522	   4.00000	2430.77780	   0.36939	   0.10129	   0.38303	 -15.33370
60105.68322	   4.00000	1923.15370	   0.38792	   0.11276	   0.40397	 -16.20853
60105.92122	   4.00000	1522.43580	   0.40615	   0.12148	   0.42393	 -16.65182
60106.15922	   4.00000	1203.84460	   0.42479	   0.13028	   0.44432	 -17.05000
60106.39722	   4.00000	 952.86591	   0.44539	   0.13906	   0.46660	 -17.33995
60106.63622	   4.00000	 754.27557	   0.46866	   0.14780	   0.49142	 -17.50330
60106.87322	   4.00000	 596.71857	   0.48766	   0.15719	   0.51237	 -17.86616
60107.11022	   4.00000	 471.96338	   0.51378	   0.16671	   0.54015	 -17.97743
60107.35022	   4.00000	 373.20856	   0.53970	   0.17688	   0.56794	 -18.14554
60107.58722	   4.00000	 295.47278	   0.56562	   0.18818	   0.59611	 -18.40242
60107.82622	   4.00000	 233.87738	   0.59193	   0.19600	   0.62354	 -18.32095
60108.06422	   4.00000	 185.05922	   0.62284	   0.20596	   0.65601	 -18.29807
60108.30122	   4.00000	 146.35823	   0.65636	   0.21559	   0.69086	 -18.18324
60108.53722	   4.00000	 115.77804	   0.68893	   0.22464	   0.72463	 -18.05996
60108.77122	   4.00000	  91.67210	   0.72305	   0.23353	   0.75983	 -17.89961
60109.01722	   4.00000	  72.51701	   0.76216	   0.23873	   0.79867	 -17.39197
60109.24622	   4.00000	  57.36816	   0.80633	   0.25111	   0.84452	 -17.29764
60109.48322	   4.00000	  45.36290	   0.84858	   0.25620	   0.88641	 -16.79998
60109.71522	   4.00000	  35.93134	   0.87798	   0.25777	   0.91504	 -16.36182
60109.96522	   4.00000	  28.40909	   0.92935	   0.25548	   0.96383	 -15.37116
60110.18022	   4.00000	  22.48202	   0.96836	   0.25612	   1.00166	 -14.81463
60110.44522	   4.00000	  17.79613	   0.99894	   0.26339	   1.03308	 -14.77108
60110.69722	   4.00000	  14.06813	   1.06498	   0.28178	   1.10163	 -14.81992
60110.91322	   4.00000	  11.14480	   1.09091	   0.24995	   1.11918	 -12.90506
60111.18022	   4.00000	   8.81772	   1.17525	   0.26453	   1.20466	 -12.68500
60111.35822	   4.00000	   6.97545	   1.18940	   0.27778	   1.22141	 -13.14547
60111.57622	   4.00000	   5.51730	   1.20182	   0.22629	   1.22294	 -10.66313
60111.84622	   4.00000	   4.36941	   1.27040	   0.16674	   1.28130	  -7.47725
60112.18122	   4.00000	   3.45686	   1.36377	   0.16357	   1.37354	  -6.83920
60112.59922	   4.00000	   2.73547	   1.40394	   0.21002	   1.41956	  -8.50818
60113.12522	   4.00000	   2.16054	   1.37420	   0.24692	   1.39621	 -10.18651
60113.78422	   4.00000	   1.70952	   1.30414	   0.22410	   1.32326	  -9.75019
60114.61222	   4.00000	   1.35352	   1.25367	   0.13069	   1.26047	  -5.95124
60115.65522	   4.00000	   1.07079	   1.27756	  -0.00441	   1.27757	   0.19775
60116.96922	   4.00000	   0.84734	   1.39765	  -0.11146	   1.40209	   4.55941
60118.62522	   4.00000	   0.67072	   1.56036	  -0.13260	   1.56598	   4.85723
60120.71322	   4.00000	   0.53067	   1.74261	  -0.01624	   1.74268	   0.53402
60123.35022	   4.00000	   0.41976	   1.81386	   0.22164	   1.82735	  -6.96663
60126.68122	   4.00000	   0.33183	   1.70461	   0.47613	   1.76986	 -15.60607
60130.88722	   4.00000	   0.26261	   1.42723	   0.61469	   1.55398	 -23.30100
60136.19522	   4.00000	   0.20791	   1.09231	   0.52941	   1.21384	 -25.85797
60142.90022	   4.00000	   0.16452	   0.87114	   0.20276	   0.89442	 -13.10273
60151.37622	   4.00000	   0.13007	   0.92758	  -0.24702	   0.95991	  14.91212
60162.06622	   4.00000	   0.10309	   1.31923	  -0.60453	   1.45115	  24.61928
60175.58022	   4.00000	   0.08153	   1.93478	  -0.65981	   2.04420	  18.83075
60192.67822	   4.00000	   0.06443	   2.50005	  -0.37493	   2.52801	   8.52903
60214.26422	   4.00000	   0.05102	   2.93794	   0.30978	   2.95423	  -6.01911
60241.50722	   4.00000	   0.04042	   2.96093	   1.20570	   3.19700	 -22.15636
60276.00322	   4.00000	   0.03192	   2.44553	   2.01105	   3.16622	 -39.43175
60319.55023	   4.00000	   0.02528	   1.53182	   2.31184	   2.77328	 -56.47156
60374.61523	   4.00000	   0.01999	   0.59344	   1.86894	   1.96090	 -72.38390
75528.77563	   5.00000	20004.45300	   0.27059	  -0.01698	   0.27112	   3.59142
75528.91863	   5.00000	15829.12600	   0.27680	   0.00231	   0.27681	  -0.47758
75529.06063	   5.00000	12516.70300	   0.28548	   0.02035	   0.28620	  -4.07704
75529.20263	   5.00000	9909.44240	   0.29298	   0.03375	   0.29492	  -6.57185
75529.36663	   5.00000	7835.48000	   0.30728	   0.04906	   0.31117	  -9.07102
75529.56763	   5.00000	6217.24610	   0.31752	   0.06069	   0.32327	 -10.82021
75529.80563	   5.00000	4905.29100	   0.32861	   0.07095	   0.33618	 -12.18428
75530.04463	   5.00000	3881.27370	   0.34102	   0.08284	   0.35093	 -13.65331
75530.28263	   5.00000	3070.98270	   0.35635	   0.09166	   0.36795	 -14.42553
75530.52063	   5.00000	2430.77780	   0.37334	   0.10194	   0.38700	 -15.27190
75530.75863	   5.00000	1923.15370	   0.38785	   0.11305	   0.40399	 -16.25050
75530.99663	   5.00000	1522.43580	   0.40482	   0.12156	   0.42268	 -16.71447
75531.23463	   5.00000	1203.84460	   0.42420	   0.13197	   0.44426	 -17.28067
75531.47363	   5.00000	 952.86591	   0.44544	   0.14116	   0.46727	 -17.58328
