time/s	           cycle number	freq/Hz	           Re(Z)/Ohm	  -Im(Z)/Ohm	   |Z|/Ohm	   Phase(Z)/deg
7649.68732	   1.00000	20004.45300	   0.27927	  -0.01558	   0.27970	   3.19352
7649.83032	   1.00000	15829.12600	   0.28646	   0.00337	   0.28648	  -0.67404
7649.97232	   1.00000	12516.70300	   0.29326	   0.01954	   0.29391	  -3.81247
7650.11432	   1.00000	9909.44240	   0.30342	   0.03540	   0.30547	  -6.65417
7650.27832	   1.00000	7835.48000	   0.31257	   0.04832	   0.31628	  -8.78771
7650.47932	   1.00000	6217.24610	   0.32437	   0.05753	   0.32943	 -10.05800
7650.71732	   1.00000	4905.29100	   0.33475	   0.06907	   0.34180	 -11.65859
7650.95532	   1.00000	3881.27370	   0.34923	   0.07941	   0.35814	 -12.81022
7651.19332	   1.00000	3070.98270	   0.36237	   0.08831	   0.37298	 -13.69579
7651.43232	   1.00000	2430.77780	   0.37723	   0.09793	   0.38974	 -14.55322
7651.67032	   1.00000	1923.15370	   0.39151	   0.10773	   0.40606	 -15.38452
7651.90832	   1.00000	1522.43580	   0.40855	   0.11667	   0.42488	 -15.93771
7652.14632	   1.00000	1203.84460	   0.42752	   0.12632	   0.44579	 -16.46117
7652.38432	   1.00000	 952.86591	   0.44681	   0.13602	   0.46705	 -16.93162
7652.62332	   1.00000	 754.27557	   0.46801	   0.14480	   0.48990	 -17.19225
7652.86032	   1.00000	 596.71857	   0.48954	   0.15299	   0.51289	 -17.35487
7653.09832	   1.00000	 471.96338	   0.51210	   0.16349	   0.53756	 -17.70616
7653.33732	   1.00000	 373.20856	   0.53573	   0.17479	   0.56352	 -18.06957
7653.57432	   1.00000	 295.47278	   0.56211	   0.18481	   0.59171	 -18.19959
7653.81332	   1.00000	 233.87738	   0.58945	   0.19812	   0.62185	 -18.57775
7654.05232	   1.00000	 185.05922	   0.62027	   0.20947	   0.65468	 -18.66062
7654.28832	   1.00000	 146.35823	   0.65235	   0.22294	   0.68940	 -18.86796
7654.52432	   1.00000	 115.77804	   0.68823	   0.23486	   0.72720	 -18.84219
7654.75832	   1.00000	  91.67210	   0.72572	   0.24638	   0.76641	 -18.75211
7655.00432	   1.00000	  72.51701	   0.76297	   0.25969	   0.80596	 -18.79697
7655.23332	   1.00000	  57.36816	   0.80326	   0.26684	   0.84642	 -18.37610
7655.47032	   1.00000	  45.36290	   0.84479	   0.27761	   0.88923	 -18.19137
7655.70232	   1.00000	  35.93134	   0.89138	   0.28246	   0.93507	 -17.58242
7655.95232	   1.00000	  28.40909	   0.93240	   0.29465	   0.97784	 -17.53711
7656.16732	   1.00000	  22.48202	   0.97702	   0.30376	   1.02315	 -17.27084
7656.43232	   1.00000	  17.79613	   1.02093	   0.30971	   1.06687	 -16.87560
7656.68432	   1.00000	  14.06813	   1.05785	   0.32140	   1.10559	 -16.89996
7656.90032	   1.00000	  11.14480	   1.12251	   0.33634	   1.17182	 -16.67990
7657.16732	   1.00000	   8.81772	   1.15911	   0.35502	   1.21226	 -17.02908
7657.34532	   1.00000	   6.97545	   1.22460	   0.36053	   1.27657	 -16.40471
7657.56332	   1.00000	   5.51730	   1.31019	   0.36146	   1.35914	 -15.42341
7657.83332	   1.00000	   4.36941	   1.37693	   0.39349	   1.43205	 -15.94843
7658.16832	   1.00000	   3.45686	   1.42508	   0.38543	   1.47628	 -15.13424
7658.58732	   1.00000	   2.73547	   1.48360	   0.35483	   1.52544	 -13.45080
7659.11232	   1.00000	   2.16054	   1.54521	   0.30445	   1.57491	 -11.14620
7659.77132	   1.00000	   1.70952	   1.62325	   0.25092	   1.64253	  -8.78701
7660.59932	   1.00000	   1.35352	   1.70488	   0.22440	   1.71959	  -7.49812
7661.64232	   1.00000	   1.07079	   1.76132	   0.22766	   1.77597	  -7.36482
7662.95532	   1.00000	   0.84734	   1.77686	   0.24751	   1.79402	  -7.92996
7664.61132	   1.00000	   0.67072	   1.75763	   0.25509	   1.77604	  -8.25774
7666.70032	   1.00000	   0.53067	   1.70101	   0.23378	   1.71700	  -7.82551
7669.33632	   1.00000	   0.41976	   1.65162	   0.16590	   1.65993	  -5.73585
7672.66832	   1.00000	   0.33183	   1.64643	   0.06786	   1.64782	  -2.36027
7676.87332	   1.00000	   0.26261	   1.70366	  -0.02237	   1.70381	   0.75231
7682.18232	   1.00000	   0.20791	   1.80869	  -0.05990	   1.80968	   1.89678
7688.88633	   1.00000	   0.16452	   1.92217	  -0.01989	   1.92227	   0.59288
7697.36233	   1.00000	   0.13007	   1.99445	   0.09380	   1.99665	  -2.69266
7708.05333	   1.00000	   0.10309	   1.98542	   0.24314	   2.00025	  -6.98184
7721.56633	   1.00000	   0.08153	   1.88718	   0.37335	   1.92375	 -11.19061
7738.66433	   1.00000	   0.06443	   1.74540	   0.43877	   1.79970	 -14.11090
7760.25133	   1.00000	   0.05102	   1.56145	   0.39376	   1.61034	 -14.15350
7787.49333	   1.00000	   0.04042	   1.44020	   0.22348	   1.45743	  -8.82061
7821.98933	   1.00000	   0.03192	   1.47172	  -0.01903	   1.47184	   0.74070
7865.53633	   1.00000	   0.02528	   1.70334	  -0.22223	   1.71778	   7.43322
7920.60234	   1.00000	   0.01999	   2.08557	  -0.24543	   2.09996	   6.71183
23667.34504	   2.00000	20004.45300	   0.28264	  -0.01523	   0.28305	   3.08357
23667.48804	   2.00000	15829.12600	   0.29046	   0.00401	   0.29049	  -0.79044
23667.63004	   2.00000	12516.70300	   0.29778	   0.01956	   0.29843	  -3.75840
23667.77204	   2.00000	9909.44240	   0.30697	   0.03646	   0.30913	  -6.77344
23667.93604	   2.00000	7835.48000	   0.31851	   0.04731	   0.32200	  -8.44862
23668.13704	   2.00000	6217.24610	   0.32726	   0.05993	   0.33270	 -10.37772
23668.37504	   2.00000	4905.29100	   0.33936	   0.07042	   0.34659	 -11.72344
23668.61304	   2.00000	3881.27370	   0.35225	   0.07954	   0.36112	 -12.72380
23668.85104	   2.00000	3070.98270	   0.36630	   0.08978	   0.37715	 -13.77117
23669.09004	   2.00000	2430.77780	   0.38188	   0.09904	   0.39451	 -14.53939
23669.32804	   2.00000	1923.15370	   0.39879	   0.11011	   0.41371	 -15.43478
23669.56604	   2.00000	1522.43580	   0.41448	   0.11841	   0.43106	 -15.94321
23669.80404	   2.00000	1203.84460	   0.43397	   0.12821	   0.45251	 -16.45836
23670.04204	   2.00000	 952.86591	   0.45403	   0.13789	   0.47451	 -16.89393
23670.28104	   2.00000	 754.27557	   0.47475	   0.14736	   0.49709	 -17.24451
23670.51804	   2.00000	 596.71857	   0.49645	   0.15521	   0.52015	 -17.36134
23670.75504	   2.00000	 471.96338	   0.51933	   0.16766	   0.54572	 -17.89245
23670.99504	   2.00000	 373.20856	   0.54509	   0.17694	   0.57309	 -17.98402
23671.23204	   2.00000	 295.47278	   0.57072	   0.18807	   0.60091	 -18.23859
23671.47204	   2.00000	 233.87738	   0.59967	   0.20017	   0.63220	 -18.45887
23671.71004	   2.00000	 185.05922	   0.62970	   0.21065	   0.66400	 -18.49608
23671.94604	   2.00000	 146.35823	   0.66422	   0.22370	   0.70088	 -18.61261
23672.18204	   2.00000	 115.77804	   0.69828	   0.23673	   0.73732	 -18.72789
23672.41604	   2.00000	  91.67210	   0.73577	   0.24724	   0.77620	 -18.57360
23672.66204	   2.00000	  72.51701	   0.77614	   0.26006	   0.81855	 -18.52424
23672.89104	   2.00000	  57.36816	   0.81296	   0.26953	   0.85648	 -18.34220
23673.12804	   2.00000	  45.36290	   0.85616	   0.27954	   0.90064	 -18.08227
23673.36004	   2.00000	  35.93134	   0.90217	   0.28425	   0.94589	 -17.48830
23673.61004	   2.00000	  28.40909	   0.94386	   0.29530	   0.98898	 -17.37308
23673.82504	   2.00000	  22.48202	   0.98877	   0.30148	   1.03371	 -16.95682
23674.09004	   2.00000	  17.79613	   1.03198	   0.30909	   1.07728	 -16.67351
23674.34204	   2.00000	  14.06813	   1.06913	   0.32404	   1.11715	 -16.86144
23674.55804	   2.00000	  11.14480	   1.13525	   0.33255	   1.18295	 -16.32687
23674.82504	   2.00000	   8.81772	   1.17370	   0.36007	   1.22769	 -17.05489
23675.00304	   2.00000	   6.97545	   1.23845	   0.35578	   1.28854	 -16.02827
23675.22204	   2.00000	   5.51730	   1.31438	   0.34673	   1.35935	 -14.77776
23675.49104	   2.00000	   4.36941	   1.40059	   0.37409	   1.44969	 -14.95421
23675.82604	   2.00000	   3.45686	   1.44691	   0.38327	   1.49681	 -14.83610
23676.24504	   2.00000	   2.73547	   1.49012	   0.35614	   1.53209	 -13.44160
23676.77004	   2.00000	   2.16054	   1.53741	   0.30596	   1.56756	 -11.25550
23677.42904	   2.00000	   1.70952	   1.59887	   0.23979	   1.61676	  -8.52937
23678.25804	   2.00000	   1.35352	   1.68002	   0.19092	   1.69084	  -6.48320
23679.30004	   2.00000	   1.07079	   1.75720	   0.17991	   1.76639	  -5.84589
23680.61404	   2.00000	   0.84734	   1.80170	   0.20511	   1.81334	  -6.49463
23682.27004	   2.00000	   0.67072	   1.80230	   0.23736	   1.81786	  -7.50249
23684.35904	   2.00000	   0.53067	   1.74703	   0.25945	   1.76619	  -8.44722
23686.99504	   2.00000	   0.41976	   1.66758	   0.23046	   1.68343	  -7.86830
23690.32704	   2.00000	   0.33183	   1.60829	   0.14261	   1.61460	  -5.06735
23694.53204	   2.00000	   0.26261	   1.61262	   0.02454	   1.61281	  -0.87194
23699.84104	   2.00000	   0.20791	   1.69185	  -0.07365	   1.69345	   2.49255
23706.54504	   2.00000	   0.16452	   1.82861	  -0.10108	   1.83141	   3.16404
23715.02204	   2.00000	   0.13007	   1.96677	  -0.03121	   1.96702	   0.90922
23725.71204	   2.00000	   0.10309	   2.04565	   0.12437	   2.04943	  -3.47908
23739.22604	   2.00000	   0.08153	   2.02052	   0.31569	   2.04503	  -8.88015
23756.32304	   2.00000	   0.06443	   1.90784	   0.46424	   1.96351	 -13.67626
23777.91004	   2.00000	   0.05102	   1.69496	   0.52676	   1.77493	 -17.26416
23805.15204	   2.00000	   0.04042	   1.48458	   0.43840	   1.54796	 -16.45196
23839.64804	   2.00000	   0.03192	   1.38775	   0.22098	   1.40524	  -9.04769
23883.19505	   2.00000	   0.02528	   1.47883	  -0.03434	   1.47923	   1.33012
23938.26105	   2.00000	   0.01999	   1.76146	  -0.19725	   1.77247	   6.38940
39421.56203	   3.00000	20004.45300	   0.28689	  -0.01459	   0.28726	   2.91204
39421.70503	   3.00000	15829.12600	   0.29215	   0.00435	   0.29218	  -0.85311
39421.84703	   3.00000	12516.70300	   0.29992	   0.02146	   0.30069	  -4.09324
39421.98903	   3.00000	9909.44240	   0.30904	   0.03704	   0.31125	  -6.83520
39422.15303	   3.00000	7835.48000	   0.31950	   0.05010	   0.32340	  -8.91110
39422.35403	   3.00000	6217.24610	   0.32995	   0.06045	   0.33545	 -10.38129
39422.59203	   3.00000	4905.29100	   0.34072	   0.07246	   0.34834	 -12.00665
39422.83103	   3.00000	3881.27370	   0.35396	   0.08141	   0.36321	 -12.95265
39423.06903	   3.00000	3070.98270	   0.37056	   0.09050	   0.38145	 -13.72386
39423.30703	   3.00000	2430.77780	   0.38426	   0.10284	   0.39778	 -14.98332
39423.54503	   3.00000	1923.15370	   0.40167	   0.11223	   0.41706	 -15.61117
39423.78303	   3.00000	1522.43580	   0.41944	   0.12140	   0.43665	 -16.14285
39424.02103	   3.00000	1203.84460	   0.43726	   0.12863	   0.45579	 -16.39202
39424.26003	   3.00000	 952.86591	   0.45739	   0.13873	   0.47796	 -16.87269
39424.49803	   3.00000	 754.27557	   0.47767	   0.14934	   0.50047	 -17.36151
39424.73503	   3.00000	 596.71857	   0.49984	   0.15800	   0.52422	 -17.54172
39424.97303	   3.00000	 471.96338	   0.52505	   0.16702	   0.55097	 -17.64613
39425.21203	   3.00000	 373.20856	   0.54979	   0.17829	   0.57798	 -17.96748
39425.45003	   3.00000	 295.47278	   0.57566	   0.19025	   0.60629	 -18.28833
39425.68903	   3.00000	 233.87738	   0.60436	   0.20102	   0.63691	 -18.39830
39425.92703	   3.00000	 185.05922	   0.63344	   0.21390	   0.66858	 -18.65894
39426.16303	   3.00000	 146.35823	   0.66638	   0.22513	   0.70338	 -18.66709
39426.40003	   3.00000	 115.77804	   0.70227	   0.23842	   0.74164	 -18.75209
39426.63403	   3.00000	  91.67210	   0.74038	   0.25062	   0.78165	 -18.70122
39426.87903	   3.00000	  72.51701	   0.78098	   0.25876	   0.82273	 -18.33124
39427.10803	   3.00000	  57.36816	   0.82421	   0.27223	   0.86800	 -18.27793
39427.34503	   3.00000	  45.36290	   0.86732	   0.28037	   0.91151	 -17.91392
39427.57703	   3.00000	  35.93134	   0.90579	   0.28555	   0.94973	 -17.49745
39427.82803	   3.00000	  28.40909	   0.95367	   0.29182	   0.99732	 -17.01404
39428.04203	   3.00000	  22.48202	   0.99516	   0.30128	   1.03977	 -16.84321
39428.30703	   3.00000	  17.79613	   1.03507	   0.31099	   1.08078	 -16.72305
39428.55903	   3.00000	  14.06813	   1.09119	   0.33386	   1.14112	 -17.01199
39428.77503	   3.00000	  11.14480	   1.13428	   0.33395	   1.18242	 -16.40509
39429.04203	   3.00000	   8.81772	   1.20653	   0.35432	   1.25748	 -16.36578
39429.22103	   3.00000	   6.97545	   1.24960	   0.37527	   1.30473	 -16.71555
39429.43903	   3.00000	   5.51730	   1.30995	   0.36389	   1.35955	 -15.52488
39429.70803	   3.00000	   4.36941	   1.38358	   0.34219	   1.42527	 -13.89174
39430.04303	   3.00000	   3.45686	   1.48370	   0.33766	   1.52163	 -12.82099
39430.46203	   3.00000	   2.73547	   1.55236	   0.35367	   1.59214	 -12.83458
39430.98703	   3.00000	   2.16054	   1.58451	   0.34609	   1.62187	 -12.32092
39431.64603	   3.00000	   1.70952	   1.59802	   0.30889	   1.62760	 -10.93992
39432.47503	   3.00000	   1.35352	   1.61128	   0.24290	   1.62948	  -8.57283
39433.51703	   3.00000	   1.07079	   1.64692	   0.16298	   1.65496	  -5.65159
39434.83103	   3.00000	   0.84734	   1.71264	   0.09811	   1.71545	  -3.27872
39436.48703	   3.00000	   0.67072	   1.78703	   0.07178	   1.78848	  -2.30021
39438.57603	   3.00000	   0.53067	   1.85998	   0.10351	   1.86286	  -3.18533
39441.21203	   3.00000	   0.41976	   1.88322	   0.17909	   1.89171	  -5.43230
39444.54403	   3.00000	   0.33183	   1.83552	   0.25779	   1.85353	  -7.99455
39448.75003	   3.00000	   0.26261	   1.72930	   0.28862	   1.75322	  -9.47549
39454.05803	   3.00000	   0.20791	   1.61527	   0.24050	   1.63307	  -8.46867
39460.76203	   3.00000	   0.16452	   1.54972	   0.12081	   1.55442	  -4.45765
39469.23903	   3.00000	   0.13007	   1.57673	  -0.02274	   1.57689	   0.82612
39479.92903	   3.00000	   0.10309	   1.70077	  -0.12586	   1.70542	   4.23236
39493.44303	   3.00000	   0.08153	   1.88290	  -0.13407	   1.88766	   4.07277
39510.54004	   3.00000	   0.06443	   2.04217	  -0.04129	   2.04258	   1.15824
39532.12704	   3.00000	   0.05102	   2.16042	   0.17527	   2.16752	  -4.63815
39559.36904	   3.00000	   0.04042	   2.13527	   0.44954	   2.18208	 -11.88881
39593.86504	   3.00000	   0.03192	   1.95516	   0.66211	   2.06423	 -18.70849
39637.41204	   3.00000	   0.02528	   1.69621	   0.70692	   1.83762	 -22.62463
39692.47804	   3.00000	   0.01999	   1.49339	   0.56390	   1.59631	 -20.68621
54998.67751	   4.00000	20004.45300	   0.28506	  -0.01439	   0.28543	   2.88910
54998.82051	   4.00000	15829.12600	   0.29185	   0.00516	   0.29190	  -1.01350
54998.96251	   4.00000	12516.70300	   0.30256	   0.02021	   0.30323	  -3.82093
54999.10451	   4.00000	9909.44240	   0.31120	   0.03758	   0.31346	  -6.88483
54999.26851	   4.00000	7835.48000	   0.32019	   0.04914	   0.32394	  -8.72468
54999.46951	   4.00000	6217.24610	   0.33151	   0.05970	   0.33684	 -10.20827
54999.70751	   4.00000	4905.29100	   0.34395	   0.07208	   0.35142	 -11.83664
54999.94551	   4.00000	3881.27370	   0.35825	   0.08216	   0.36755	 -12.91596
55000.18351	   4.00000	3070.98270	   0.37112	   0.09302	   0.38260	 -14.07165
55000.42151	   4.00000	2430.77780	   0.38805	   0.10075	   0.40091	 -14.55495
55000.66051	   4.00000	1923.15370	   0.40202	   0.11169	   0.41725	 -15.52602
55000.89751	   4.00000	1522.43580	   0.42011	   0.11931	   0.43673	 -15.85408
55001.13651	   4.00000	1203.84460	   0.43940	   0.12941	   0.45806	 -16.41015
55001.37451	   4.00000	 952.86591	   0.45947	   0.13988	   0.48029	 -16.93198
55001.61351	   4.00000	 754.27557	   0.47987	   0.14954	   0.50263	 -17.30792
55001.85051	   4.00000	 596.71857	   0.50206	   0.15951	   0.52679	 -17.62611
55002.08751	   4.00000	 471.96338	   0.52737	   0.17008	   0.55411	 -17.87525
55002.32651	   4.00000	 373.20856	   0.55003	   0.17940	   0.57855	 -18.06482
55002.56451	   4.00000	 295.47278	   0.58149	   0.19173	   0.61229	 -18.24868
55002.80351	   4.00000	 233.87738	   0.60908	   0.20538	   0.64278	 -18.63425
55003.04151	   4.00000	 185.05922	   0.64000	   0.21567	   0.67536	 -18.62268
55003.27751	   4.00000	 146.35823	   0.67397	   0.22812	   0.71153	 -18.69969
55003.51451	   4.00000	 115.77804	   0.70895	   0.24012	   0.74851	 -18.71094
55003.74851	   4.00000	  91.67210	   0.74737	   0.25318	   0.78909	 -18.71455
55003.99351	   4.00000	  72.51701	   0.78726	   0.26332	   0.83013	 -18.49360
55004.22251	   4.00000	  57.36816	   0.82853	   0.27006	   0.87143	 -18.05332
55004.45951	   4.00000	  45.36290	   0.86943	   0.27858	   0.91297	 -17.76649
55004.69151	   4.00000	  35.93134	   0.91208	   0.29032	   0.95717	 -17.65634
55004.94251	   4.00000	  28.40909	   0.95160	   0.29570	   0.99648	 -17.26212
55005.15651	   4.00000	  22.48202	   0.99534	   0.30793	   1.04188	 -17.19052
55005.42151	   4.00000	  17.79613	   1.04558	   0.32056	   1.09362	 -17.04470
55005.67351	   4.00000	  14.06813	   1.09582	   0.32102	   1.14187	 -16.32773
55005.88951	   4.00000	  11.14480	   1.14074	   0.34933	   1.19303	 -17.02616
55006.15651	   4.00000	   8.81772	   1.19507	   0.34322	   1.24338	 -16.02380
55006.33551	   4.00000	   6.97545	   1.27285	   0.35137	   1.32045	 -15.43204
55006.55351	   4.00000	   5.51730	   1.32837	   0.38450	   1.38290	 -16.14325
55006.82251	   4.00000	   4.36941	   1.37770	   0.37059	   1.42668	 -15.05580
55007.15751	   4.00000	   3.45686	   1.44152	   0.34270	   1.48169	 -13.37281
55007.57651	   4.00000	   2.73547	   1.52085	   0.29905	   1.54997	 -11.12425
55008.10151	   4.00000	   2.16054	   1.61358	   0.27419	   1.63671	  -9.64396
55008.76051	   4.00000	   1.70952	   1.68199	   0.27866	   1.70492	  -9.40681
55009.58951	   4.00000	   1.35352	   1.70504	   0.28768	   1.72914	  -9.57692
55010.63151	   4.00000	   1.07079	   1.68843	   0.27954	   1.71141	  -9.40063
55011.94551	   4.00000	   0.84734	   1.65405	   0.23700	   1.67094	  -8.15400
55013.60151	   4.00000	   0.67072	   1.63258	   0.16611	   1.64101	  -5.80951
55015.69051	   4.00000	   0.53067	   1.64846	   0.06845	   1.64988	  -2.37764
55018.32751	   4.00000	   0.41976	   1.72165	  -0.01191	   1.72169	   0.39637
55021.65851	   4.00000	   0.33183	   1.83211	  -0.03127	   1.83238	   0.97769
55025.86451	   4.00000	   0.26261	   1.93319	   0.03033	   1.93342	  -0.89896
55031.17251	   4.00000	   0.20791	   1.97294	   0.15480	   1.97900	  -4.48645
55037.87651	   4.00000	   0.16452	   1.91873	   0.28959	   1.94046	  -8.58284
55046.35351	   4.00000	   0.13007	   1.78497	   0.36807	   1.82252	 -11.65151
55057.04351	   4.00000	   0.10309	   1.62488	   0.34631	   1.66138	 -12.03126
55070.55751	   4.00000	   0.08153	   1.51202	   0.22617	   1.52884	  -8.50714
55087.65551	   4.00000	   0.06443	   1.49360	   0.08251	   1.49587	  -3.16178
55109.24151	   4.00000	   0.05102	   1.60233	  -0.08662	   1.60467	   3.09435
55136.48452	   4.00000	   0.04042	   1.82688	  -0.15997	   1.83387	   5.00428
55170.97952	   4.00000	   0.03192	   2.09482	  -0.07734	   2.09624	   2.11448
55214.52752	   4.00000	   0.02528	   2.28866	   0.16740	   2.29478	  -4.18325
55269.59252	   4.00000	   0.01999	   2.32376	   0.49224	   2.37532	 -11.96023
70453.12556	   5.00000	20004.45300	   0.28593	  -0.01418	   0.28628	   2.83967
70453.26856	   5.00000	15829.12600	   0.29326	   0.00325	   0.29328	  -0.63469
70453.41056	   5.00000	12516.70300	   0.30187	   0.02063	   0.30257	  -3.90882
70453.55256	   5.00000	9909.44240	   0.31160	   0.03637	   0.31372	  -6.65812
70453.71656	   5.00000	7835.48000	   0.32051	   0.04925	   0.32428	  -8.73592
70453.91756	   5.00000	6217.24610	   0.33327	   0.06183	   0.33896	 -10.51079
70454.15556	   5.00000	4905.29100	   0.34497	   0.07233	   0.35247	 -11.84144
70454.39456	   5.00000	3881.27370	   0.35742	   0.08212	   0.36673	 -12.93906
70454.63156	   5.00000	3070.98270	   0.37057	   0.09178	   0.38177	 -13.91097
70454.87056	   5.00000	2430.77780	   0.38458	   0.10211	   0.39791	 -14.86911
70455.10856	   5.00000	1923.15370	   0.40413	   0.11087	   0.41907	 -15.34090
70455.34656	   5.00000	1522.43580	   0.42174	   0.12192	   0.43901	 -16.12423
70455.58456	   5.00000	1203.84460	   0.43907	   0.12929	   0.45771	 -16.40805
70455.82256	   5.00000	 952.86591	   0.45934	   0.13990	   0.48017	 -16.93936
70456.06156	   5.00000	 754.27557	   0.48333	   0.14893	   0.50575	 -17.12575
