time/s	           cycle number	freq/Hz	           Re(Z)/Ohm	  -Im(Z)/Ohm	   |Z|/Ohm	   Phase(Z)/deg
7161.65811	   1.00000	20004.45300	   0.28660	  -0.01492	   0.28699	   2.98087
7161.80111	   1.00000	15829.12600	   0.29726	   0.00424	   0.29729	  -0.81790
7161.94311	   1.00000	12516.70300	   0.30663	   0.02372	   0.30754	  -4.42402
7162.08511	   1.00000	9909.44240	   0.31612	   0.03993	   0.31863	  -7.19961
7162.24911	   1.00000	7835.48000	   0.32648	   0.05221	   0.33063	  -9.08625
7162.45011	   1.00000	6217.24610	   0.33852	   0.06422	   0.34456	 -10.74127
7162.68811	   1.00000	4905.29100	   0.35192	   0.07558	   0.35994	 -12.12106
7162.92711	   1.00000	3881.27370	   0.36440	   0.08686	   0.37461	 -13.40723
7163.16511	   1.00000	3070.98270	   0.38006	   0.09642	   0.39210	 -14.23493
7163.40311	   1.00000	2430.77780	   0.39688	   0.10624	   0.41085	 -14.98606
7163.64111	   1.00000	1923.15370	   0.41315	   0.11680	   0.42934	 -15.78650
7163.87911	   1.00000	1522.43580	   0.43152	   0.12458	   0.44914	 -16.10341
7164.11711	   1.00000	1203.84460	   0.45083	   0.13346	   0.47017	 -16.49062
7164.35611	   1.00000	 952.86591	   0.47082	   0.14363	   0.49224	 -16.96513
7164.59411	   1.00000	 754.27557	   0.49099	   0.15350	   0.51443	 -17.36043
7164.83111	   1.00000	 596.71857	   0.51523	   0.16226	   0.54018	 -17.48072
7165.06911	   1.00000	 471.96338	   0.53871	   0.17299	   0.56580	 -17.80328
7165.30811	   1.00000	 373.20856	   0.56507	   0.18284	   0.59392	 -17.92975
7165.54611	   1.00000	 295.47278	   0.59171	   0.19541	   0.62314	 -18.27542
7165.78511	   1.00000	 233.87738	   0.62106	   0.20636	   0.65445	 -18.37986
7166.02311	   1.00000	 185.05922	   0.65184	   0.21816	   0.68738	 -18.50427
7166.25911	   1.00000	 146.35823	   0.68572	   0.23156	   0.72376	 -18.65908
7166.49611	   1.00000	 115.77804	   0.72243	   0.24353	   0.76237	 -18.62894
7166.73011	   1.00000	  91.67210	   0.75922	   0.25562	   0.80110	 -18.60788
7166.97511	   1.00000	  72.51701	   0.80050	   0.26761	   0.84404	 -18.48486
7167.20411	   1.00000	  57.36816	   0.84252	   0.27620	   0.88664	 -18.15053
7167.44111	   1.00000	  45.36290	   0.88536	   0.28523	   0.93017	 -17.85700
7167.67311	   1.00000	  35.93134	   0.92620	   0.29317	   0.97149	 -17.56420
7167.92411	   1.00000	  28.40909	   0.96637	   0.30278	   1.01270	 -17.39688
7168.13811	   1.00000	  22.48202	   1.00821	   0.31522	   1.05634	 -17.36191
7168.40311	   1.00000	  17.79613	   1.04901	   0.32912	   1.09943	 -17.41911
7168.65511	   1.00000	  14.06813	   1.09193	   0.35107	   1.14698	 -17.82328
7168.87111	   1.00000	  11.14480	   1.13746	   0.37663	   1.19819	 -18.32027
7169.13811	   1.00000	   8.81772	   1.19193	   0.40692	   1.25948	 -18.84960
7169.31711	   1.00000	   6.97545	   1.24673	   0.43658	   1.32096	 -19.29929
7169.53511	   1.00000	   5.51730	   1.32713	   0.48024	   1.41135	 -19.89327
7169.80411	   1.00000	   4.36941	   1.39909	   0.50400	   1.48710	 -19.81089
7170.13911	   1.00000	   3.45686	   1.51431	   0.53297	   1.60536	 -19.38995
7170.55811	   1.00000	   2.73547	   1.61105	   0.56083	   1.70587	 -19.19362
7171.08311	   1.00000	   2.16054	   1.71979	   0.54764	   1.80488	 -17.66339
7171.74211	   1.00000	   1.70952	   1.83888	   0.52752	   1.91305	 -16.00676
7172.57111	   1.00000	   1.35352	   1.93753	   0.49999	   2.00100	 -14.46992
7173.61411	   1.00000	   1.07079	   2.01846	   0.45379	   2.06885	 -12.67046
7174.92711	   1.00000	   0.84734	   2.08854	   0.40055	   2.12660	 -10.85670
7176.58311	   1.00000	   0.67072	   2.14490	   0.35194	   2.17358	  -9.31811
7178.67211	   1.00000	   0.53067	   2.18787	   0.30883	   2.20956	  -8.03450
7181.30811	   1.00000	   0.41976	   2.21945	   0.27127	   2.23597	  -6.96842
7184.64011	   1.00000	   0.33183	   2.24332	   0.23989	   2.25611	  -6.10375
7188.84511	   1.00000	   0.26261	   2.26333	   0.21468	   2.27349	  -5.41842
7194.15411	   1.00000	   0.20791	   2.28134	   0.19730	   2.28986	  -4.94298
7200.85811	   1.00000	   0.16452	   2.29700	   0.18854	   2.30472	  -4.69246
7209.33412	   1.00000	   0.13007	   2.31077	   0.18631	   2.31827	  -4.60962
7220.02512	   1.00000	   0.10309	   2.32336	   0.18843	   2.33099	  -4.63664
7233.53812	   1.00000	   0.08153	   2.33957	   0.19587	   2.34775	  -4.78566
7250.63612	   1.00000	   0.06443	   2.36066	   0.21153	   2.37011	  -5.12050
7272.22212	   1.00000	   0.05102	   2.38589	   0.23629	   2.39756	  -5.65585
7299.46512	   1.00000	   0.04042	   2.40950	   0.26914	   2.42449	  -6.37353
7333.96012	   1.00000	   0.03192	   2.43762	   0.30081	   2.45611	  -7.03493
7377.50712	   1.00000	   0.02528	   2.48036	   0.33375	   2.50271	  -7.66347
7432.57213	   1.00000	   0.01999	   2.53916	   0.38143	   2.56765	  -8.54300
23070.86863	   2.00000	20004.45300	   0.29618	  -0.01190	   0.29642	   2.30034
23071.01163	   2.00000	15829.12600	   0.30389	   0.00775	   0.30399	  -1.46137
23071.15363	   2.00000	12516.70300	   0.31494	   0.02509	   0.31594	  -4.55443
23071.29563	   2.00000	9909.44240	   0.32474	   0.04203	   0.32745	  -7.37488
23071.45963	   2.00000	7835.48000	   0.33716	   0.05462	   0.34155	  -9.20272
23071.66063	   2.00000	6217.24610	   0.34931	   0.06812	   0.35589	 -11.03561
23071.89863	   2.00000	4905.29100	   0.36388	   0.07973	   0.37251	 -12.35840
23072.13763	   2.00000	3881.27370	   0.37848	   0.09097	   0.38926	 -13.51491
23072.37463	   2.00000	3070.98270	   0.39332	   0.10042	   0.40594	 -14.32287
23072.61263	   2.00000	2430.77780	   0.40967	   0.11068	   0.42436	 -15.11903
23072.85163	   2.00000	1923.15370	   0.42686	   0.11880	   0.44308	 -15.55201
23073.08963	   2.00000	1522.43580	   0.44509	   0.12978	   0.46362	 -16.25564
23073.32763	   2.00000	1203.84460	   0.46580	   0.13888	   0.48606	 -16.60187
23073.56563	   2.00000	 952.86591	   0.48739	   0.14795	   0.50936	 -16.88591
23073.80463	   2.00000	 754.27557	   0.50944	   0.15897	   0.53366	 -17.33086
23074.04163	   2.00000	 596.71857	   0.53385	   0.16895	   0.55994	 -17.56132
23074.27963	   2.00000	 471.96338	   0.55859	   0.17807	   0.58629	 -17.68155
23074.51863	   2.00000	 373.20856	   0.58464	   0.18954	   0.61460	 -17.96252
23074.75563	   2.00000	 295.47278	   0.61460	   0.19894	   0.64599	 -17.93654
23074.99563	   2.00000	 233.87738	   0.64420	   0.21187	   0.67815	 -18.20516
23075.23363	   2.00000	 185.05922	   0.67552	   0.22270	   0.71128	 -18.24604
23075.46963	   2.00000	 146.35823	   0.71185	   0.23650	   0.75011	 -18.37834
23075.70563	   2.00000	 115.77804	   0.74662	   0.24701	   0.78642	 -18.30609
23075.94063	   2.00000	  91.67210	   0.78545	   0.25898	   0.82704	 -18.24856
23076.18563	   2.00000	  72.51701	   0.82652	   0.26906	   0.86921	 -18.03167
23076.41463	   2.00000	  57.36816	   0.86777	   0.27878	   0.91145	 -17.81028
23076.65163	   2.00000	  45.36290	   0.91014	   0.28803	   0.95463	 -17.56076
23076.88363	   2.00000	  35.93134	   0.95365	   0.29566	   0.99843	 -17.22518
23077.13363	   2.00000	  28.40909	   0.99367	   0.30530	   1.03951	 -17.07930
23077.34863	   2.00000	  22.48202	   1.03715	   0.31764	   1.08470	 -17.02797
23077.61363	   2.00000	  17.79613	   1.07880	   0.32999	   1.12814	 -17.00792
23077.86563	   2.00000	  14.06813	   1.12211	   0.34855	   1.17499	 -17.25591
23078.08163	   2.00000	  11.14480	   1.17305	   0.37264	   1.23081	 -17.62317
23078.34863	   2.00000	   8.81772	   1.22549	   0.39858	   1.28868	 -18.01665
23078.52663	   2.00000	   6.97545	   1.28561	   0.43436	   1.35700	 -18.66825
23078.74563	   2.00000	   5.51730	   1.37210	   0.45351	   1.44511	 -18.28981
23079.01463	   2.00000	   4.36941	   1.44147	   0.48527	   1.52096	 -18.60562
23079.34963	   2.00000	   3.45686	   1.54094	   0.48746	   1.61621	 -17.55431
23079.76863	   2.00000	   2.73547	   1.64404	   0.50065	   1.71858	 -16.93683
23080.29363	   2.00000	   2.16054	   1.73308	   0.48631	   1.80002	 -15.67424
23080.95263	   2.00000	   1.70952	   1.82780	   0.45177	   1.88280	 -13.88345
23081.78163	   2.00000	   1.35352	   1.91188	   0.41686	   1.95680	 -12.30010
23082.82363	   2.00000	   1.07079	   1.97627	   0.37539	   2.01161	 -10.75510
23084.13763	   2.00000	   0.84734	   2.02602	   0.33133	   2.05294	  -9.28773
23085.79363	   2.00000	   0.67072	   2.06653	   0.29022	   2.08681	  -7.99435
23087.88263	   2.00000	   0.53067	   2.09715	   0.25288	   2.11234	  -6.87577
23090.51863	   2.00000	   0.41976	   2.12091	   0.22355	   2.13266	  -6.01680
23093.85063	   2.00000	   0.33183	   2.13997	   0.20041	   2.14933	  -5.35007
23098.05563	   2.00000	   0.26261	   2.15500	   0.18307	   2.16277	  -4.85568
23103.36363	   2.00000	   0.20791	   2.17079	   0.17250	   2.17764	  -4.54351
23110.06863	   2.00000	   0.16452	   2.18665	   0.16953	   2.19322	  -4.43321
23118.54463	   2.00000	   0.13007	   2.20165	   0.17577	   2.20866	  -4.56448
23129.23463	   2.00000	   0.10309	   2.21355	   0.18927	   2.22163	  -4.88712
23142.74863	   2.00000	   0.08153	   2.22333	   0.20518	   2.23277	  -5.27263
23159.84663	   2.00000	   0.06443	   2.23684	   0.22482	   2.24811	  -5.73938
23181.43263	   2.00000	   0.05102	   2.25849	   0.24438	   2.27168	  -6.17554
23208.67463	   2.00000	   0.04042	   2.28649	   0.27536	   2.30301	  -6.86707
23243.16964	   2.00000	   0.03192	   2.32008	   0.31152	   2.34090	  -7.64737
23286.71764	   2.00000	   0.02528	   2.36682	   0.34834	   2.39231	  -8.37242
23341.78164	   2.00000	   0.01999	   2.43589	   0.39709	   2.46805	  -9.25879
38350.82762	   3.00000	20004.45300	   0.29998	  -0.01216	   0.30023	   2.32039
38350.97062	   3.00000	15829.12600	   0.30798	   0.00806	   0.30808	  -1.49856
38351.11262	   3.00000	12516.70300	   0.31859	   0.02681	   0.31972	  -4.80979
38351.25462	   3.00000	9909.44240	   0.32773	   0.04290	   0.33053	  -7.45823
38351.41862	   3.00000	7835.48000	   0.33963	   0.05548	   0.34413	  -9.27740
38351.61962	   3.00000	6217.24610	   0.35263	   0.06908	   0.35934	 -11.08365
38351.85762	   3.00000	4905.29100	   0.36466	   0.08024	   0.37339	 -12.40972
38352.09562	   3.00000	3881.27370	   0.38022	   0.09060	   0.39087	 -13.40218
38352.33362	   3.00000	3070.98270	   0.39700	   0.10151	   0.40977	 -14.34218
38352.57162	   3.00000	2430.77780	   0.41408	   0.11130	   0.42878	 -15.04521
38352.81062	   3.00000	1923.15370	   0.43110	   0.12163	   0.44793	 -15.75547
38353.04762	   3.00000	1522.43580	   0.44957	   0.13131	   0.46835	 -16.28217
38353.28662	   3.00000	1203.84460	   0.46970	   0.14021	   0.49018	 -16.62099
38353.52462	   3.00000	 952.86591	   0.49291	   0.15048	   0.51537	 -16.97632
38353.76262	   3.00000	 754.27557	   0.51576	   0.16090	   0.54027	 -17.32604
38354.00062	   3.00000	 596.71857	   0.53938	   0.16987	   0.56550	 -17.48138
38354.23762	   3.00000	 471.96338	   0.56426	   0.18107	   0.59261	 -17.79140
38354.47662	   3.00000	 373.20856	   0.59174	   0.19179	   0.62204	 -17.95816
38354.71462	   3.00000	 295.47278	   0.62028	   0.20138	   0.65215	 -17.98632
38354.95362	   3.00000	 233.87738	   0.65143	   0.21215	   0.68511	 -18.03875
38355.19162	   3.00000	 185.05922	   0.68300	   0.22500	   0.71911	 -18.23348
38355.42762	   3.00000	 146.35823	   0.71727	   0.23717	   0.75547	 -18.29697
38355.66462	   3.00000	 115.77804	   0.75455	   0.24968	   0.79479	 -18.30911
38355.89862	   3.00000	  91.67210	   0.79286	   0.26048	   0.83455	 -18.18686
38356.14362	   3.00000	  72.51701	   0.83367	   0.26996	   0.87628	 -17.94296
38356.37362	   3.00000	  57.36816	   0.87735	   0.27945	   0.92078	 -17.66728
38356.60962	   3.00000	  45.36290	   0.91877	   0.28848	   0.96300	 -17.43148
38356.84262	   3.00000	  35.93134	   0.96162	   0.29582	   1.00609	 -17.09950
38357.09262	   3.00000	  28.40909	   1.00193	   0.30598	   1.04761	 -16.98219
38357.30662	   3.00000	  22.48202	   1.04482	   0.31774	   1.09207	 -16.91513
38357.57162	   3.00000	  17.79613	   1.08794	   0.33130	   1.13726	 -16.93638
38357.82462	   3.00000	  14.06813	   1.13070	   0.35140	   1.18404	 -17.26423
38358.04062	   3.00000	  11.14480	   1.18139	   0.37133	   1.23838	 -17.44895
38358.30762	   3.00000	   8.81772	   1.23875	   0.39927	   1.30151	 -17.86491
38358.48562	   3.00000	   6.97545	   1.30556	   0.41457	   1.36980	 -17.61681
38358.70362	   3.00000	   5.51730	   1.37425	   0.45093	   1.44634	 -18.16601
38358.97262	   3.00000	   4.36941	   1.45945	   0.45354	   1.52830	 -17.26322
38359.30862	   3.00000	   3.45686	   1.55608	   0.47547	   1.62710	 -16.99079
38359.72662	   3.00000	   2.73547	   1.63880	   0.46924	   1.70465	 -15.97811
38360.25162	   3.00000	   2.16054	   1.73574	   0.44424	   1.79168	 -14.35606
38360.91162	   3.00000	   1.70952	   1.82169	   0.41781	   1.86899	 -12.91745
38361.73962	   3.00000	   1.35352	   1.88886	   0.38173	   1.92705	 -11.42534
38362.78262	   3.00000	   1.07079	   1.94444	   0.33733	   1.97348	  -9.84208
38364.09662	   3.00000	   0.84734	   1.98992	   0.29586	   2.01179	  -8.45682
38365.75162	   3.00000	   0.67072	   2.02429	   0.25815	   2.04068	  -7.26761
38367.84062	   3.00000	   0.53067	   2.05033	   0.22716	   2.06287	  -6.32208
38370.47762	   3.00000	   0.41976	   2.07067	   0.20088	   2.08039	  -5.54093
38373.80862	   3.00000	   0.33183	   2.08784	   0.18014	   2.09559	  -4.93142
38378.01462	   3.00000	   0.26261	   2.10369	   0.16734	   2.11033	  -4.54797
38383.32262	   3.00000	   0.20791	   2.11799	   0.16213	   2.12419	  -4.37750
38390.02762	   3.00000	   0.16452	   2.12968	   0.16363	   2.13596	  -4.39361
38398.50362	   3.00000	   0.13007	   2.13858	   0.17030	   2.14535	  -4.55307
38409.19362	   3.00000	   0.10309	   2.14781	   0.17777	   2.15516	  -4.73136
38422.70762	   3.00000	   0.08153	   2.16171	   0.19004	   2.17005	  -5.02415
38439.80462	   3.00000	   0.06443	   2.17995	   0.20930	   2.18997	  -5.48425
38461.39062	   3.00000	   0.05102	   2.20114	   0.23568	   2.21372	  -6.11135
38488.63362	   3.00000	   0.04042	   2.22707	   0.26427	   2.24269	  -6.76713
38523.12862	   3.00000	   0.03192	   2.26755	   0.29868	   2.28713	  -7.50376
38566.67563	   3.00000	   0.02528	   2.32097	   0.34838	   2.34697	  -8.53649
38621.74063	   3.00000	   0.01999	   2.37630	   0.41734	   2.41267	  -9.96108
53241.35189	   4.00000	20004.45300	   0.29980	  -0.01186	   0.30003	   2.26451
53241.49389	   4.00000	15829.12600	   0.30946	   0.00687	   0.30953	  -1.27123
53241.63589	   4.00000	12516.70300	   0.31924	   0.02647	   0.32034	  -4.73995
53241.77789	   4.00000	9909.44240	   0.32996	   0.04178	   0.33260	  -7.21614
53241.94189	   4.00000	7835.48000	   0.34138	   0.05574	   0.34590	  -9.27322
53242.14289	   4.00000	6217.24610	   0.35256	   0.07055	   0.35955	 -11.31654
53242.38089	   4.00000	4905.29100	   0.36776	   0.08050	   0.37647	 -12.34674
53242.61989	   4.00000	3881.27370	   0.38275	   0.09198	   0.39365	 -13.51332
53242.85789	   4.00000	3070.98270	   0.39703	   0.10193	   0.40991	 -14.39814
53243.09589	   4.00000	2430.77780	   0.41466	   0.11126	   0.42933	 -15.01923
53243.33389	   4.00000	1923.15370	   0.43180	   0.12066	   0.44834	 -15.61246
53243.57189	   4.00000	1522.43580	   0.45108	   0.13186	   0.46996	 -16.29478
53243.80989	   4.00000	1203.84460	   0.47295	   0.14046	   0.49337	 -16.54048
53244.04889	   4.00000	 952.86591	   0.49567	   0.15039	   0.51798	 -16.87855
53244.28689	   4.00000	 754.27557	   0.51605	   0.16024	   0.54036	 -17.25057
53244.52389	   4.00000	 596.71857	   0.54122	   0.17177	   0.56783	 -17.60825
53244.76189	   4.00000	 471.96338	   0.56558	   0.18007	   0.59355	 -17.66084
53245.00089	   4.00000	 373.20856	   0.59343	   0.19063	   0.62329	 -17.80877
53245.23789	   4.00000	 295.47278	   0.62137	   0.20293	   0.65367	 -18.08597
53245.47789	   4.00000	 233.87738	   0.65201	   0.21441	   0.68636	 -18.20366
53245.71589	   4.00000	 185.05922	   0.68380	   0.22382	   0.71950	 -18.12454
53245.95189	   4.00000	 146.35823	   0.72054	   0.23791	   0.75880	 -18.27278
53246.18789	   4.00000	 115.77804	   0.75594	   0.24840	   0.79570	 -18.19039
53246.42289	   4.00000	  91.67210	   0.79381	   0.26009	   0.83534	 -18.14137
53246.66789	   4.00000	  72.51701	   0.83454	   0.26987	   0.87709	 -17.92000
53246.89689	   4.00000	  57.36816	   0.87735	   0.27878	   0.92057	 -17.62796
53247.13389	   4.00000	  45.36290	   0.91999	   0.28814	   0.96405	 -17.39065
53247.36589	   4.00000	  35.93134	   0.96170	   0.29514	   1.00597	 -17.06094
53247.61589	   4.00000	  28.40909	   1.00427	   0.30461	   1.04945	 -16.87313
53247.83089	   4.00000	  22.48202	   1.04594	   0.31473	   1.09227	 -16.74669
53248.09589	   4.00000	  17.79613	   1.08941	   0.33193	   1.13885	 -16.94513
53248.34789	   4.00000	  14.06813	   1.13461	   0.34791	   1.18675	 -17.04754
53248.56389	   4.00000	  11.14480	   1.18234	   0.36881	   1.23853	 -17.32450
53248.83089	   4.00000	   8.81772	   1.23965	   0.39405	   1.30077	 -17.63420
53249.00989	   4.00000	   6.97545	   1.31516	   0.41663	   1.37957	 -17.57794
53249.22789	   4.00000	   5.51730	   1.37534	   0.43659	   1.44297	 -17.61162
53249.49689	   4.00000	   4.36941	   1.47062	   0.45379	   1.53904	 -17.14873
53249.83189	   4.00000	   3.45686	   1.54710	   0.46495	   1.61545	 -16.72718
53250.25089	   4.00000	   2.73547	   1.64159	   0.44847	   1.70175	 -15.28003
53250.77589	   4.00000	   2.16054	   1.73656	   0.43239	   1.78959	 -13.98189
53251.43489	   4.00000	   1.70952	   1.81066	   0.40502	   1.85541	 -12.60868
53252.26389	   4.00000	   1.35352	   1.87415	   0.36282	   1.90895	 -10.95654
53253.30689	   4.00000	   1.07079	   1.92990	   0.32004	   1.95626	  -9.41584
53254.61989	   4.00000	   0.84734	   1.97203	   0.28153	   1.99202	  -8.12465
53256.27589	   4.00000	   0.67072	   2.00436	   0.24613	   2.01941	  -7.00068
53258.36489	   4.00000	   0.53067	   2.02739	   0.21599	   2.03886	  -6.08100
53261.00189	   4.00000	   0.41976	   2.04674	   0.19118	   2.05565	  -5.33642
53264.33289	   4.00000	   0.33183	   2.06430	   0.17334	   2.07157	  -4.79977
53268.53889	   4.00000	   0.26261	   2.07861	   0.16267	   2.08497	  -4.47474
53273.84689	   4.00000	   0.20791	   2.08989	   0.15875	   2.09591	  -4.34395
53280.55089	   4.00000	   0.16452	   2.09845	   0.15871	   2.10445	  -4.32509
53289.02690	   4.00000	   0.13007	   2.10856	   0.16145	   2.11474	  -4.37844
53299.71790	   4.00000	   0.10309	   2.12126	   0.16910	   2.12799	  -4.55793
53313.23090	   4.00000	   0.08153	   2.13737	   0.18454	   2.14532	  -4.93462
53330.32890	   4.00000	   0.06443	   2.15488	   0.20655	   2.16476	  -5.47523
53351.91490	   4.00000	   0.05102	   2.17398	   0.23056	   2.18617	  -6.05372
53379.15790	   4.00000	   0.04042	   2.20449	   0.25867	   2.21962	  -6.69227
53413.65290	   4.00000	   0.03192	   2.24686	   0.30080	   2.26691	  -7.62507
53457.19990	   4.00000	   0.02528	   2.29009	   0.35797	   2.31790	  -8.88414
53512.26491	   4.00000	   0.01999	   2.32898	   0.41939	   2.36644	 -10.20821
67922.90086	   5.00000	20004.45300	   0.30112	  -0.01230	   0.30137	   2.33946
67923.04386	   5.00000	15829.12600	   0.31022	   0.00949	   0.31037	  -1.75225
67923.18586	   5.00000	12516.70300	   0.32039	   0.02622	   0.32146	  -4.67828
67923.32786	   5.00000	9909.44240	   0.33041	   0.04284	   0.33318	  -7.38759
67923.49186	   5.00000	7835.48000	   0.34231	   0.05640	   0.34693	  -9.35599
67923.69286	   5.00000	6217.24610	   0.35485	   0.06869	   0.36143	 -10.95624
67923.93086	   5.00000	4905.29100	   0.36787	   0.08146	   0.37678	 -12.48640
67924.16886	   5.00000	3881.27370	   0.38129	   0.09175	   0.39217	 -13.52955
67924.40686	   5.00000	3070.98270	   0.39959	   0.10120	   0.41220	 -14.21189
67924.64586	   5.00000	2430.77780	   0.41409	   0.11103	   0.42871	 -15.01026
67924.88386	   5.00000	1923.15370	   0.43338	   0.12252	   0.45037	 -15.78585
67925.12186	   5.00000	1522.43580	   0.45261	   0.13221	   0.47152	 -16.28381
67925.35986	   5.00000	1203.84460	   0.47217	   0.14175	   0.49298	 -16.70989
67925.59886	   5.00000	 952.86591	   0.49566	   0.14999	   0.51786	 -16.83632
67925.83686	   5.00000	 754.27557	   0.51793	   0.16155	   0.54254	 -17.32299
