time/s	           cycle number	freq/Hz	           Re(Z)/Ohm	  -Im(Z)/Ohm	   |Z|/Ohm	   Phase(Z)/deg
11665.66431	   1.00000	20004.45300	   0.38645	  -0.03421	   0.38796	   5.05810
11665.80631	   1.00000	15829.12600	   0.39104	  -0.01443	   0.39131	   2.11342
11665.94831	   1.00000	12516.70300	   0.39671	  -0.00038	   0.39671	   0.05451
11666.09031	   1.00000	9909.44240	   0.40420	   0.01366	   0.40443	  -1.93500
11666.25531	   1.00000	7835.48000	   0.41033	   0.02620	   0.41117	  -3.65340
11666.45531	   1.00000	6217.24610	   0.41846	   0.03382	   0.41982	  -4.62054
11666.69431	   1.00000	4905.29100	   0.42749	   0.04361	   0.42971	  -5.82427
11666.93231	   1.00000	3881.27370	   0.43694	   0.05069	   0.43987	  -6.61719
11667.17031	   1.00000	3070.98270	   0.44695	   0.05900	   0.45082	  -7.51968
11667.40831	   1.00000	2430.77780	   0.45696	   0.06600	   0.46170	  -8.21866
11667.64631	   1.00000	1923.15370	   0.46650	   0.07302	   0.47218	  -8.89638
11667.88431	   1.00000	1522.43580	   0.47869	   0.08158	   0.48559	  -9.67200
11668.12231	   1.00000	1203.84460	   0.49390	   0.08722	   0.50154	 -10.01530
11668.36131	   1.00000	 952.86591	   0.50734	   0.09431	   0.51603	 -10.53056
11668.59931	   1.00000	 754.27557	   0.52109	   0.10110	   0.53080	 -10.97966
11668.83731	   1.00000	 596.71857	   0.53681	   0.10708	   0.54739	 -11.28126
11669.07431	   1.00000	 471.96338	   0.55299	   0.11257	   0.56433	 -11.50652
11669.31331	   1.00000	 373.20856	   0.57239	   0.12076	   0.58499	 -11.91294
11669.55131	   1.00000	 295.47278	   0.59098	   0.12615	   0.60429	 -12.04994
11669.79031	   1.00000	 233.87738	   0.60977	   0.13124	   0.62374	 -12.14654
11670.02831	   1.00000	 185.05922	   0.63065	   0.13820	   0.64562	 -12.36034
11670.26431	   1.00000	 146.35823	   0.65308	   0.14393	   0.66876	 -12.42826
11670.50131	   1.00000	 115.77804	   0.67551	   0.14952	   0.69186	 -12.48071
11670.73531	   1.00000	  91.67210	   0.69849	   0.15492	   0.71546	 -12.50578
11670.98131	   1.00000	  72.51701	   0.72459	   0.16001	   0.74205	 -12.45250
11671.21031	   1.00000	  57.36816	   0.75287	   0.16374	   0.77047	 -12.26992
11671.44631	   1.00000	  45.36290	   0.77960	   0.16942	   0.79779	 -12.26088
11671.67931	   1.00000	  35.93134	   0.80800	   0.17027	   0.82574	 -11.89996
11671.92931	   1.00000	  28.40909	   0.84011	   0.16707	   0.85656	 -11.24772
11672.14331	   1.00000	  22.48202	   0.87075	   0.16128	   0.88556	 -10.49362
11672.40831	   1.00000	  17.79613	   0.89765	   0.15281	   0.91057	  -9.66076
11672.66131	   1.00000	  14.06813	   0.92562	   0.14350	   0.93668	  -8.81233
11672.87731	   1.00000	  11.14480	   0.94681	   0.12990	   0.95568	  -7.81230
11673.14431	   1.00000	   8.81772	   0.96707	   0.11629	   0.97404	  -6.85664
11673.32231	   1.00000	   6.97545	   0.98112	   0.10441	   0.98666	  -6.07447
11673.54031	   1.00000	   5.51730	   0.99108	   0.09296	   0.99543	  -5.35833
11673.81031	   1.00000	   4.36941	   1.00397	   0.08072	   1.00721	  -4.59658
11674.14531	   1.00000	   3.45686	   1.01443	   0.07168	   1.01696	  -4.04199
11674.56331	   1.00000	   2.73547	   1.02303	   0.06943	   1.02538	  -3.88238
11675.08931	   1.00000	   2.16054	   1.02648	   0.06704	   1.02867	  -3.73680
11675.74831	   1.00000	   1.70952	   1.02954	   0.06250	   1.03143	  -3.47391
11676.57631	   1.00000	   1.35352	   1.03199	   0.05711	   1.03357	  -3.16739
11677.61931	   1.00000	   1.07079	   1.03733	   0.05205	   1.03864	  -2.87261
11678.93331	   1.00000	   0.84734	   1.04636	   0.04756	   1.04744	  -2.60234
11680.58931	   1.00000	   0.67072	   1.05807	   0.04734	   1.05913	  -2.56183
11682.67831	   1.00000	   0.53067	   1.07114	   0.05330	   1.07247	  -2.84866
11685.31431	   1.00000	   0.41976	   1.08112	   0.06692	   1.08319	  -3.54186
11688.64631	   1.00000	   0.33183	   1.08254	   0.08426	   1.08582	  -4.45064
11692.85131	   1.00000	   0.26261	   1.07734	   0.09702	   1.08170	  -5.14572
11698.16031	   1.00000	   0.20791	   1.07114	   0.10267	   1.07605	  -5.47504
11704.86431	   1.00000	   0.16452	   1.06941	   0.10146	   1.07421	  -5.41973
11713.34131	   1.00000	   0.13007	   1.07839	   0.09824	   1.08285	  -5.20524
11724.03131	   1.00000	   0.10309	   1.09929	   0.09961	   1.10380	  -5.17747
11737.54531	   1.00000	   0.08153	   1.12810	   0.11094	   1.13355	  -5.61653
11754.64231	   1.00000	   0.06443	   1.16021	   0.13792	   1.16838	  -6.77945
11776.22931	   1.00000	   0.05102	   1.19411	   0.18213	   1.20792	  -8.67206
11803.47231	   1.00000	   0.04042	   1.21406	   0.24070	   1.23769	 -11.21405
11837.96732	   1.00000	   0.03192	   1.21772	   0.29813	   1.25368	 -13.75716
11881.51532	   1.00000	   0.02528	   1.21504	   0.34036	   1.26181	 -15.64880
11936.58032	   1.00000	   0.01999	   1.22646	   0.36470	   1.27953	 -16.56049
27702.63642	   2.00000	20004.45300	   0.38956	  -0.03380	   0.39102	   4.95883
27702.77842	   2.00000	15829.12600	   0.39488	  -0.01587	   0.39519	   2.30149
27702.92042	   2.00000	12516.70300	   0.40122	  -0.00013	   0.40122	   0.01795
27703.06242	   2.00000	9909.44240	   0.40788	   0.01421	   0.40812	  -1.99483
27703.22742	   2.00000	7835.48000	   0.41471	   0.02523	   0.41548	  -3.48112
27703.42742	   2.00000	6217.24610	   0.42145	   0.03388	   0.42281	  -4.59640
27703.66642	   2.00000	4905.29100	   0.43072	   0.04436	   0.43300	  -5.88024
27703.90442	   2.00000	3881.27370	   0.44016	   0.05388	   0.44345	  -6.97848
27704.14242	   2.00000	3070.98270	   0.45026	   0.05914	   0.45413	  -7.48213
27704.38042	   2.00000	2430.77780	   0.46043	   0.06759	   0.46536	  -8.35110
27704.61842	   2.00000	1923.15370	   0.47223	   0.07405	   0.47800	  -8.91214
27704.85642	   2.00000	1522.43580	   0.48535	   0.08228	   0.49228	  -9.62156
27705.09442	   2.00000	1203.84460	   0.49785	   0.08814	   0.50559	 -10.03971
27705.33342	   2.00000	 952.86591	   0.51167	   0.09513	   0.52044	 -10.53201
27705.57142	   2.00000	 754.27557	   0.52662	   0.10230	   0.53646	 -10.99277
27705.80942	   2.00000	 596.71857	   0.54099	   0.10794	   0.55166	 -11.28377
27706.04642	   2.00000	 471.96338	   0.55947	   0.11447	   0.57106	 -11.56318
27706.28542	   2.00000	 373.20856	   0.57683	   0.12080	   0.58934	 -11.82817
27706.52342	   2.00000	 295.47278	   0.59549	   0.12667	   0.60881	 -12.00857
27706.76242	   2.00000	 233.87738	   0.61516	   0.13262	   0.62929	 -12.16583
27707.00042	   2.00000	 185.05922	   0.63572	   0.13942	   0.65083	 -12.36963
27707.23642	   2.00000	 146.35823	   0.65866	   0.14520	   0.67448	 -12.43208
27707.47342	   2.00000	 115.77804	   0.68088	   0.15041	   0.69730	 -12.45642
27707.70742	   2.00000	  91.67210	   0.70431	   0.15452	   0.72106	 -12.37425
27707.95342	   2.00000	  72.51701	   0.72989	   0.16058	   0.74734	 -12.40772
27708.18242	   2.00000	  57.36816	   0.75663	   0.16702	   0.77484	 -12.44799
27708.41842	   2.00000	  45.36290	   0.78563	   0.17045	   0.80391	 -12.24122
27708.65142	   2.00000	  35.93134	   0.81653	   0.17103	   0.83425	 -11.83044
27708.90142	   2.00000	  28.40909	   0.84923	   0.17031	   0.86614	 -11.34004
27709.11542	   2.00000	  22.48202	   0.87825	   0.16478	   0.89357	 -10.62623
27709.38042	   2.00000	  17.79613	   0.90799	   0.15523	   0.92116	  -9.70134
27709.63342	   2.00000	  14.06813	   0.93316	   0.14397	   0.94420	  -8.77048
27709.84942	   2.00000	  11.14480	   0.95558	   0.13125	   0.96455	  -7.82064
27710.11642	   2.00000	   8.81772	   0.97583	   0.11877	   0.98303	  -6.93961
27710.29442	   2.00000	   6.97545	   0.98922	   0.10728	   0.99502	  -6.18974
27710.51242	   2.00000	   5.51730	   1.00260	   0.09245	   1.00685	  -5.26839
27710.78142	   2.00000	   4.36941	   1.01406	   0.08107	   1.01730	  -4.57060
27711.11742	   2.00000	   3.45686	   1.02488	   0.07678	   1.02776	  -4.28443
27711.53542	   2.00000	   2.73547	   1.03090	   0.07141	   1.03337	  -3.96272
27712.06042	   2.00000	   2.16054	   1.03398	   0.06634	   1.03611	  -3.67096
27712.72042	   2.00000	   1.70952	   1.03816	   0.06031	   1.03991	  -3.32452
27713.54842	   2.00000	   1.35352	   1.04345	   0.05456	   1.04487	  -2.99297
27714.59142	   2.00000	   1.07079	   1.05223	   0.04964	   1.05340	  -2.70093
27715.90542	   2.00000	   0.84734	   1.06348	   0.04913	   1.06461	  -2.64511
27717.56042	   2.00000	   0.67072	   1.07483	   0.05389	   1.07618	  -2.87037
27719.64942	   2.00000	   0.53067	   1.08267	   0.06502	   1.08462	  -3.43679
27722.28642	   2.00000	   0.41976	   1.08393	   0.07841	   1.08676	  -4.13760
27725.61742	   2.00000	   0.33183	   1.07901	   0.08784	   1.08258	  -4.65416
27729.82342	   2.00000	   0.26261	   1.07430	   0.09073	   1.07812	  -4.82748
27735.13142	   2.00000	   0.20791	   1.07514	   0.08772	   1.07871	  -4.66442
27741.83642	   2.00000	   0.16452	   1.08493	   0.08408	   1.08818	  -4.43168
27750.31242	   2.00000	   0.13007	   1.10576	   0.08558	   1.10907	  -4.42575
27761.00242	   2.00000	   0.10309	   1.13362	   0.09754	   1.13781	  -4.91758
27774.51643	   2.00000	   0.08153	   1.16387	   0.12441	   1.17050	  -6.10123
27791.61443	   2.00000	   0.06443	   1.18834	   0.16522	   1.19977	  -7.91555
27813.20143	   2.00000	   0.05102	   1.20092	   0.21769	   1.22049	 -10.27423
27840.44343	   2.00000	   0.04042	   1.19767	   0.26523	   1.22669	 -12.48714
27874.93943	   2.00000	   0.03192	   1.19339	   0.29714	   1.22983	 -13.98149
27918.48643	   2.00000	   0.02528	   1.20403	   0.31654	   1.24494	 -14.72965
27973.55243	   2.00000	   0.01999	   1.23553	   0.33648	   1.28053	 -15.23411
43551.56847	   3.00000	20004.45300	   0.38982	  -0.03316	   0.39123	   4.86160
43551.71047	   3.00000	15829.12600	   0.39524	  -0.01513	   0.39553	   2.19203
43551.85247	   3.00000	12516.70300	   0.40132	   0.00117	   0.40132	  -0.16699
43551.99447	   3.00000	9909.44240	   0.40967	   0.01384	   0.40990	  -1.93505
43552.15947	   3.00000	7835.48000	   0.41614	   0.02578	   0.41694	  -3.54485
43552.35947	   3.00000	6217.24610	   0.42414	   0.03617	   0.42568	  -4.87394
43552.59847	   3.00000	4905.29100	   0.43379	   0.04450	   0.43607	  -5.85755
43552.83647	   3.00000	3881.27370	   0.44331	   0.05288	   0.44645	  -6.80262
43553.07447	   3.00000	3070.98270	   0.45234	   0.05965	   0.45626	  -7.51242
43553.31247	   3.00000	2430.77780	   0.46247	   0.06881	   0.46756	  -8.46302
43553.55047	   3.00000	1923.15370	   0.47414	   0.07529	   0.48008	  -9.02287
43553.78847	   3.00000	1522.43580	   0.48737	   0.08153	   0.49414	  -9.49717
43554.02647	   3.00000	1203.84460	   0.49908	   0.08857	   0.50688	 -10.06334
43554.26547	   3.00000	 952.86591	   0.51315	   0.09522	   0.52191	 -10.51226
43554.50347	   3.00000	 754.27557	   0.52750	   0.10196	   0.53726	 -10.94002
43554.74147	   3.00000	 596.71857	   0.54484	   0.10774	   0.55539	 -11.18615
43554.97847	   3.00000	 471.96338	   0.55913	   0.11543	   0.57092	 -11.66503
43555.21747	   3.00000	 373.20856	   0.57920	   0.12016	   0.59154	 -11.72056
43555.45547	   3.00000	 295.47278	   0.59865	   0.12742	   0.61206	 -12.01558
43555.69447	   3.00000	 233.87738	   0.61663	   0.13370	   0.63096	 -12.23401
43555.93247	   3.00000	 185.05922	   0.63857	   0.13964	   0.65366	 -12.33477
43556.16847	   3.00000	 146.35823	   0.66038	   0.14472	   0.67606	 -12.36048
43556.40547	   3.00000	 115.77804	   0.68269	   0.15086	   0.69916	 -12.46095
43556.63947	   3.00000	  91.67210	   0.70750	   0.15665	   0.72464	 -12.48452
43556.88547	   3.00000	  72.51701	   0.73230	   0.16295	   0.75021	 -12.54500
43557.11447	   3.00000	  57.36816	   0.76016	   0.16721	   0.77833	 -12.40557
43557.35047	   3.00000	  45.36290	   0.78846	   0.17073	   0.80674	 -12.21813
43557.58347	   3.00000	  35.93134	   0.81889	   0.17174	   0.83671	 -11.84473
43557.83347	   3.00000	  28.40909	   0.85177	   0.16984	   0.86854	 -11.27691
43558.04747	   3.00000	  22.48202	   0.88100	   0.16596	   0.89650	 -10.66789
43558.31247	   3.00000	  17.79613	   0.91017	   0.15605	   0.92345	  -9.72865
43558.56547	   3.00000	  14.06813	   0.93717	   0.14509	   0.94833	  -8.80047
43558.78147	   3.00000	  11.14480	   0.95928	   0.13059	   0.96813	  -7.75209
43559.04847	   3.00000	   8.81772	   0.98032	   0.11989	   0.98762	  -6.97249
43559.22647	   3.00000	   6.97545	   0.99292	   0.10612	   0.99857	  -6.10056
43559.44447	   3.00000	   5.51730	   1.00359	   0.09191	   1.00779	  -5.23233
43559.71347	   3.00000	   4.36941	   1.01759	   0.08075	   1.02079	  -4.53737
43560.04947	   3.00000	   3.45686	   1.02871	   0.07553	   1.03147	  -4.19951
43560.46747	   3.00000	   2.73547	   1.03473	   0.07247	   1.03726	  -4.00653
43560.99247	   3.00000	   2.16054	   1.03819	   0.06709	   1.04036	  -3.69765
43561.65247	   3.00000	   1.70952	   1.04145	   0.06127	   1.04325	  -3.36672
43562.48047	   3.00000	   1.35352	   1.04688	   0.05480	   1.04831	  -2.99647
43563.52347	   3.00000	   1.07079	   1.05531	   0.05014	   1.05650	  -2.72003
43564.83747	   3.00000	   0.84734	   1.06680	   0.04891	   1.06792	  -2.62488
43566.49347	   3.00000	   0.67072	   1.07805	   0.05365	   1.07939	  -2.84904
43568.58147	   3.00000	   0.53067	   1.08737	   0.06411	   1.08926	  -3.37416
43571.21847	   3.00000	   0.41976	   1.08903	   0.07857	   1.09186	  -4.12677
43574.55047	   3.00000	   0.33183	   1.08456	   0.08862	   1.08817	  -4.67133
43578.75547	   3.00000	   0.26261	   1.07944	   0.09257	   1.08340	  -4.90174
43584.06347	   3.00000	   0.20791	   1.07939	   0.09006	   1.08314	  -4.76970
43590.76847	   3.00000	   0.16452	   1.08821	   0.08650	   1.09164	  -4.54477
43599.24447	   3.00000	   0.13007	   1.10798	   0.08716	   1.11140	  -4.49782
43609.93547	   3.00000	   0.10309	   1.13522	   0.09781	   1.13943	  -4.92420
43623.44847	   3.00000	   0.08153	   1.16621	   0.12263	   1.17264	  -6.00261
43640.54647	   3.00000	   0.06443	   1.19207	   0.16210	   1.20304	  -7.74371
43662.13348	   3.00000	   0.05102	   1.20795	   0.21456	   1.22686	 -10.07182
43689.37548	   3.00000	   0.04042	   1.20643	   0.26449	   1.23508	 -12.36544
43723.87148	   3.00000	   0.03192	   1.20194	   0.29912	   1.23860	 -13.97516
43767.41848	   3.00000	   0.02528	   1.21138	   0.31961	   1.25283	 -14.78002
43822.48448	   3.00000	   0.01999	   1.24132	   0.33953	   1.28692	 -15.29759
59266.64635	   4.00000	20004.45300	   0.39319	  -0.03356	   0.39461	   4.87822
59266.78835	   4.00000	15829.12600	   0.39730	  -0.01607	   0.39763	   2.31688
59266.93035	   4.00000	12516.70300	   0.40396	   0.00201	   0.40397	  -0.28532
59267.07235	   4.00000	9909.44240	   0.41067	   0.01432	   0.41092	  -1.99686
59267.23735	   4.00000	7835.48000	   0.41847	   0.02536	   0.41924	  -3.46771
59267.43735	   4.00000	6217.24610	   0.42701	   0.03691	   0.42860	  -4.93999
59267.67635	   4.00000	4905.29100	   0.43526	   0.04417	   0.43750	  -5.79383
59267.91435	   4.00000	3881.27370	   0.44446	   0.05147	   0.44743	  -6.60569
59268.15235	   4.00000	3070.98270	   0.45308	   0.06108	   0.45718	  -7.67788
59268.39035	   4.00000	2430.77780	   0.46476	   0.06760	   0.46965	  -8.27525
59268.62835	   4.00000	1923.15370	   0.47681	   0.07487	   0.48266	  -8.92420
59268.86635	   4.00000	1522.43580	   0.48803	   0.08260	   0.49497	  -9.60622
59269.10435	   4.00000	1203.84460	   0.50067	   0.08778	   0.50831	  -9.94406
59269.34335	   4.00000	 952.86591	   0.51565	   0.09502	   0.52433	 -10.44112
59269.58135	   4.00000	 754.27557	   0.53015	   0.10301	   0.54007	 -10.99603
59269.81935	   4.00000	 596.71857	   0.54685	   0.10783	   0.55738	 -11.15433
59270.05635	   4.00000	 471.96338	   0.56288	   0.11638	   0.57478	 -11.68226
59270.29535	   4.00000	 373.20856	   0.58146	   0.12156	   0.59403	 -11.80797
59270.53335	   4.00000	 295.47278	   0.60019	   0.12903	   0.61390	 -12.13278
59270.77235	   4.00000	 233.87738	   0.61905	   0.13419	   0.63343	 -12.23066
59271.01035	   4.00000	 185.05922	   0.64037	   0.13959	   0.65541	 -12.29715
59271.24635	   4.00000	 146.35823	   0.66333	   0.14556	   0.67911	 -12.37710
59271.48335	   4.00000	 115.77804	   0.68619	   0.15325	   0.70310	 -12.58965
59271.71735	   4.00000	  91.67210	   0.70813	   0.15809	   0.72556	 -12.58460
59271.96335	   4.00000	  72.51701	   0.73583	   0.16286	   0.75364	 -12.47971
59272.19235	   4.00000	  57.36816	   0.76310	   0.16947	   0.78170	 -12.52138
59272.42835	   4.00000	  45.36290	   0.79193	   0.17144	   0.81027	 -12.21553
59272.66135	   4.00000	  35.93134	   0.82104	   0.17286	   0.83904	 -11.88941
59272.91135	   4.00000	  28.40909	   0.85341	   0.17247	   0.87067	 -11.42535
59273.12535	   4.00000	  22.48202	   0.88531	   0.16660	   0.90085	 -10.65757
59273.39035	   4.00000	  17.79613	   0.91436	   0.15842	   0.92798	  -9.82933
59273.64335	   4.00000	  14.06813	   0.94339	   0.14620	   0.95465	  -8.80907
59273.85935	   4.00000	  11.14480	   0.96358	   0.13232	   0.97262	  -7.81934
59274.12635	   4.00000	   8.81772	   0.98506	   0.11918	   0.99224	  -6.89835
59274.30435	   4.00000	   6.97545	   1.00193	   0.10705	   1.00763	  -6.09875
59274.52235	   4.00000	   5.51730	   1.01139	   0.09543	   1.01588	  -5.39015
59274.79135	   4.00000	   4.36941	   1.02149	   0.08403	   1.02494	  -4.70275
59275.12735	   4.00000	   3.45686	   1.03098	   0.07309	   1.03357	  -4.05504
59275.54535	   4.00000	   2.73547	   1.04207	   0.06855	   1.04432	  -3.76350
59276.07035	   4.00000	   2.16054	   1.04817	   0.06713	   1.05032	  -3.66435
59276.73035	   4.00000	   1.70952	   1.05001	   0.06534	   1.05204	  -3.56097
59277.55835	   4.00000	   1.35352	   1.05192	   0.06119	   1.05370	  -3.32891
59278.60135	   4.00000	   1.07079	   1.05549	   0.05593	   1.05697	  -3.03308
59279.91535	   4.00000	   0.84734	   1.06268	   0.05132	   1.06392	  -2.76460
59281.57135	   4.00000	   0.67072	   1.07324	   0.04865	   1.07434	  -2.59563
59283.65935	   4.00000	   0.53067	   1.08715	   0.05078	   1.08833	  -2.67409
59286.29635	   4.00000	   0.41976	   1.10085	   0.06216	   1.10261	  -3.23177
59289.62835	   4.00000	   0.33183	   1.10857	   0.08000	   1.11146	  -4.12767
59293.83335	   4.00000	   0.26261	   1.10704	   0.09796	   1.11137	  -5.05678
59299.14135	   4.00000	   0.20791	   1.10014	   0.11083	   1.10571	  -5.75244
59305.84635	   4.00000	   0.16452	   1.09504	   0.11370	   1.10093	  -5.92792
59314.32235	   4.00000	   0.13007	   1.09794	   0.11206	   1.10365	  -5.82785
59325.01335	   4.00000	   0.10309	   1.11223	   0.11076	   1.11773	  -5.68699
59338.52735	   4.00000	   0.08153	   1.13697	   0.11680	   1.14295	  -5.86534
59355.62435	   4.00000	   0.06443	   1.16874	   0.13654	   1.17669	  -6.66334
59377.21136	   4.00000	   0.05102	   1.20815	   0.17062	   1.22014	  -8.03856
59404.45336	   4.00000	   0.04042	   1.24187	   0.22491	   1.26207	 -10.26539
59438.94936	   4.00000	   0.03192	   1.25944	   0.28996	   1.29239	 -12.96526
59482.49636	   4.00000	   0.02528	   1.26179	   0.34639	   1.30847	 -15.35097
59537.56236	   4.00000	   0.01999	   1.26611	   0.38431	   1.32316	 -16.88501
74894.92890	   5.00000	20004.45300	   0.39457	  -0.03444	   0.39607	   4.98805
74895.07090	   5.00000	15829.12600	   0.39902	  -0.01469	   0.39929	   2.10837
74895.21290	   5.00000	12516.70300	   0.40517	   0.00085	   0.40517	  -0.12048
74895.35490	   5.00000	9909.44240	   0.41065	   0.01403	   0.41089	  -1.95700
74895.51990	   5.00000	7835.48000	   0.41814	   0.02584	   0.41894	  -3.53669
74895.71990	   5.00000	6217.24610	   0.42684	   0.03482	   0.42826	  -4.66317
74895.95890	   5.00000	4905.29100	   0.43665	   0.04462	   0.43892	  -5.83403
74896.19690	   5.00000	3881.27370	   0.44477	   0.05296	   0.44792	  -6.78986
74896.43490	   5.00000	3070.98270	   0.45499	   0.06031	   0.45897	  -7.55085
74896.67290	   5.00000	2430.77780	   0.46437	   0.06711	   0.46920	  -8.22379
74896.91090	   5.00000	1923.15370	   0.47728	   0.07547	   0.48321	  -8.98567
74897.14890	   5.00000	1522.43580	   0.48832	   0.08243	   0.49523	  -9.58199
74897.38690	   5.00000	1203.84460	   0.50137	   0.08900	   0.50921	 -10.06562
74897.62590	   5.00000	 952.86591	   0.51611	   0.09494	   0.52477	 -10.42335
