time/s	           cycle number	freq/Hz	           Re(Z)/Ohm	  -Im(Z)/Ohm	   |Z|/Ohm	   Phase(Z)/deg
15687.50105	   1.00000	20004.45300	   0.28954	  -0.02335	   0.29048	   4.61007
15687.64405	   1.00000	15829.12600	   0.29528	  -0.00354	   0.29530	   0.68663
15687.78605	   1.00000	12516.70300	   0.30583	   0.01545	   0.30622	  -2.89265
15687.92805	   1.00000	9909.44240	   0.31382	   0.03242	   0.31549	  -5.89791
15688.09205	   1.00000	7835.48000	   0.32439	   0.04449	   0.32743	  -7.80955
15688.29305	   1.00000	6217.24610	   0.33534	   0.05678	   0.34011	  -9.60980
15688.53105	   1.00000	4905.29100	   0.34756	   0.06993	   0.35452	 -11.37588
15688.77005	   1.00000	3881.27370	   0.36088	   0.07938	   0.36951	 -12.40597
15689.00805	   1.00000	3070.98270	   0.37560	   0.09016	   0.38627	 -13.49763
15689.24605	   1.00000	2430.77780	   0.38980	   0.09981	   0.40237	 -14.36233
15689.48405	   1.00000	1923.15370	   0.40554	   0.11091	   0.42043	 -15.29584
15689.72205	   1.00000	1522.43580	   0.42502	   0.11917	   0.44141	 -15.66304
15689.96005	   1.00000	1203.84460	   0.44114	   0.12842	   0.45946	 -16.23083
15690.19905	   1.00000	 952.86591	   0.46096	   0.13842	   0.48130	 -16.71407
15690.43705	   1.00000	 754.27557	   0.48241	   0.14713	   0.50435	 -16.96093
15690.67405	   1.00000	 596.71857	   0.50449	   0.15731	   0.52845	 -17.31802
15690.91205	   1.00000	 471.96338	   0.52817	   0.16906	   0.55457	 -17.74907
15691.15105	   1.00000	 373.20856	   0.55299	   0.17909	   0.58127	 -17.94470
15691.38805	   1.00000	 295.47278	   0.57847	   0.19119	   0.60925	 -18.28966
15691.62805	   1.00000	 233.87738	   0.60764	   0.20410	   0.64100	 -18.56659
15691.86605	   1.00000	 185.05922	   0.63748	   0.21675	   0.67332	 -18.77813
15692.10205	   1.00000	 146.35823	   0.67185	   0.23090	   0.71042	 -18.96703
15692.33805	   1.00000	 115.77804	   0.70735	   0.24613	   0.74895	 -19.18621
15692.57305	   1.00000	  91.67210	   0.74548	   0.25798	   0.78885	 -19.08867
15692.81805	   1.00000	  72.51701	   0.78706	   0.26990	   0.83205	 -18.92762
15693.04705	   1.00000	  57.36816	   0.83005	   0.28131	   0.87642	 -18.72197
15693.28405	   1.00000	  45.36290	   0.87506	   0.28959	   0.92173	 -18.31108
15693.51605	   1.00000	  35.93134	   0.91863	   0.29881	   0.96600	 -18.01846
15693.76705	   1.00000	  28.40909	   0.96360	   0.30812	   1.01166	 -17.73219
15693.98105	   1.00000	  22.48202	   1.00707	   0.31755	   1.05595	 -17.50122
15694.24605	   1.00000	  17.79613	   1.05455	   0.33064	   1.10517	 -17.40794
15694.49805	   1.00000	  14.06813	   1.10424	   0.34397	   1.15657	 -17.30192
15694.71405	   1.00000	  11.14480	   1.15760	   0.35799	   1.21169	 -17.18416
15694.98205	   1.00000	   8.81772	   1.21314	   0.37396	   1.26947	 -17.13230
15695.16005	   1.00000	   6.97545	   1.28258	   0.39298	   1.34143	 -17.03487
15695.37805	   1.00000	   5.51730	   1.35048	   0.39004	   1.40568	 -16.10964
15695.64705	   1.00000	   4.36941	   1.42315	   0.40515	   1.47970	 -15.89070
15695.98205	   1.00000	   3.45686	   1.49505	   0.38949	   1.54495	 -14.60194
15696.40105	   1.00000	   2.73547	   1.57657	   0.37417	   1.62036	 -13.35098
15696.92605	   1.00000	   2.16054	   1.64293	   0.35307	   1.68044	 -12.12852
15697.58505	   1.00000	   1.70952	   1.69827	   0.31831	   1.72785	 -10.61571
15698.41405	   1.00000	   1.35352	   1.74801	   0.28126	   1.77049	  -9.14086
15699.45705	   1.00000	   1.07079	   1.78673	   0.24811	   1.80388	  -7.90576
15700.77005	   1.00000	   0.84734	   1.81485	   0.21794	   1.82789	  -6.84785
15702.42605	   1.00000	   0.67072	   1.83780	   0.19123	   1.84772	  -5.94036
15704.51505	   1.00000	   0.53067	   1.85407	   0.16834	   1.86169	  -5.18803
15707.15105	   1.00000	   0.41976	   1.86910	   0.15123	   1.87521	  -4.62573
15710.48305	   1.00000	   0.33183	   1.88150	   0.14017	   1.88671	  -4.26075
15714.68905	   1.00000	   0.26261	   1.89232	   0.13372	   1.89704	  -4.04193
15719.99705	   1.00000	   0.20791	   1.90135	   0.13054	   1.90583	  -3.92760
15726.70105	   1.00000	   0.16452	   1.91222	   0.13035	   1.91666	  -3.89962
15735.17805	   1.00000	   0.13007	   1.92474	   0.13537	   1.92950	  -4.02301
15745.86805	   1.00000	   0.10309	   1.93732	   0.14769	   1.94295	  -4.35957
15759.38205	   1.00000	   0.08153	   1.94924	   0.16491	   1.95620	  -4.83590
15776.48005	   1.00000	   0.06443	   1.96350	   0.18544	   1.97223	  -5.39527
15798.06605	   1.00000	   0.05102	   1.98339	   0.20632	   1.99409	  -5.93878
15825.30905	   1.00000	   0.04042	   2.01328	   0.23622	   2.02709	  -6.69189
15859.80406	   1.00000	   0.03192	   2.04652	   0.27843	   2.06537	  -7.74761
15903.35206	   1.00000	   0.02528	   2.07967	   0.32207	   2.10446	  -8.80333
15958.41706	   1.00000	   0.01999	   2.12285	   0.36078	   2.15328	  -9.64524
31822.57736	   2.00000	20004.45300	   0.29335	  -0.02339	   0.29428	   4.55845
31822.72036	   2.00000	15829.12600	   0.29995	  -0.00273	   0.29997	   0.52091
31822.86236	   2.00000	12516.70300	   0.30949	   0.01619	   0.30991	  -2.99518
31823.00436	   2.00000	9909.44240	   0.31854	   0.03154	   0.32010	  -5.65475
31823.16836	   2.00000	7835.48000	   0.32899	   0.04436	   0.33197	  -7.67853
31823.36936	   2.00000	6217.24610	   0.33945	   0.05950	   0.34462	  -9.94282
31823.60736	   2.00000	4905.29100	   0.35338	   0.07009	   0.36026	 -11.21824
31823.84636	   2.00000	3881.27370	   0.36511	   0.08149	   0.37409	 -12.58118
31824.08436	   2.00000	3070.98270	   0.38037	   0.09181	   0.39129	 -13.56943
31824.32236	   2.00000	2430.77780	   0.39354	   0.10070	   0.40622	 -14.35344
31824.56036	   2.00000	1923.15370	   0.41177	   0.11162	   0.42663	 -15.16694
31824.79836	   2.00000	1522.43580	   0.42915	   0.12030	   0.44569	 -15.65959
31825.03636	   2.00000	1203.84460	   0.44809	   0.13170	   0.46705	 -16.37900
31825.27536	   2.00000	 952.86591	   0.46674	   0.13963	   0.48717	 -16.65468
31825.51336	   2.00000	 754.27557	   0.48911	   0.14939	   0.51142	 -16.98460
31825.75036	   2.00000	 596.71857	   0.51202	   0.16141	   0.53686	 -17.49723
31825.98836	   2.00000	 471.96338	   0.53647	   0.17219	   0.56343	 -17.79447
31826.22736	   2.00000	 373.20856	   0.56019	   0.18382	   0.58958	 -18.16646
31826.46536	   2.00000	 295.47278	   0.58703	   0.19543	   0.61870	 -18.41321
31826.70436	   2.00000	 233.87738	   0.61718	   0.20520	   0.65040	 -18.39116
31826.94236	   2.00000	 185.05922	   0.64868	   0.22027	   0.68506	 -18.75608
31827.17836	   2.00000	 146.35823	   0.68020	   0.23314	   0.71904	 -18.91940
31827.41536	   2.00000	 115.77804	   0.71689	   0.24740	   0.75838	 -19.03972
31827.64936	   2.00000	  91.67210	   0.75548	   0.25988	   0.79893	 -18.98270
31827.89436	   2.00000	  72.51701	   0.79809	   0.27285	   0.84344	 -18.87451
31828.12336	   2.00000	  57.36816	   0.84113	   0.28528	   0.88819	 -18.73531
31828.36036	   2.00000	  45.36290	   0.88491	   0.29325	   0.93223	 -18.33468
31828.59236	   2.00000	  35.93134	   0.93066	   0.30092	   0.97810	 -17.91800
31828.84336	   2.00000	  28.40909	   0.97510	   0.31100	   1.02349	 -17.68987
31829.05736	   2.00000	  22.48202	   1.02075	   0.32087	   1.07000	 -17.45044
31829.32236	   2.00000	  17.79613	   1.06854	   0.33214	   1.11898	 -17.26717
31829.57436	   2.00000	  14.06813	   1.11540	   0.34589	   1.16779	 -17.22883
31829.79036	   2.00000	  11.14480	   1.16893	   0.36096	   1.22339	 -17.16035
31830.05736	   2.00000	   8.81772	   1.23152	   0.37542	   1.28747	 -16.95344
31830.23636	   2.00000	   6.97545	   1.29454	   0.37863	   1.34878	 -16.30325
31830.45436	   2.00000	   5.51730	   1.36166	   0.39451	   1.41765	 -16.15784
31830.72336	   2.00000	   4.36941	   1.43656	   0.38535	   1.48734	 -15.01575
31831.05836	   2.00000	   3.45686	   1.51541	   0.38522	   1.56360	 -14.26261
31831.47736	   2.00000	   2.73547	   1.57896	   0.36463	   1.62052	 -13.00332
31832.00236	   2.00000	   2.16054	   1.64790	   0.33447	   1.68150	 -11.47324
31832.66136	   2.00000	   1.70952	   1.70530	   0.30488	   1.73234	 -10.13644
31833.49036	   2.00000	   1.35352	   1.74775	   0.27200	   1.76879	  -8.84602
31834.53336	   2.00000	   1.07079	   1.78261	   0.23780	   1.79841	  -7.59844
31835.84736	   2.00000	   0.84734	   1.81036	   0.20657	   1.82211	  -6.50955
31837.50236	   2.00000	   0.67072	   1.83156	   0.18193	   1.84057	  -5.67253
31839.59136	   2.00000	   0.53067	   1.84855	   0.16249	   1.85568	  -5.02357
31842.22736	   2.00000	   0.41976	   1.86104	   0.14703	   1.86684	  -4.51708
31845.55836	   2.00000	   0.33183	   1.87226	   0.13527	   1.87714	  -4.13238
31849.76436	   2.00000	   0.26261	   1.88305	   0.12824	   1.88741	  -3.89580
31855.07236	   2.00000	   0.20791	   1.89390	   0.12668	   1.89813	  -3.82670
31861.77636	   2.00000	   0.16452	   1.90360	   0.13045	   1.90807	  -3.92023
31870.25336	   2.00000	   0.13007	   1.91242	   0.13788	   1.91739	  -4.12369
31880.94336	   2.00000	   0.10309	   1.92363	   0.14681	   1.92923	  -4.36421
31894.45736	   2.00000	   0.08153	   1.93924	   0.16157	   1.94596	  -4.76258
31911.55436	   2.00000	   0.06443	   1.95816	   0.18447	   1.96683	  -5.38165
31933.14136	   2.00000	   0.05102	   1.97750	   0.21449	   1.98910	  -6.19027
31960.38436	   2.00000	   0.04042	   1.99708	   0.24544	   2.01211	  -7.00649
31994.87937	   2.00000	   0.03192	   2.02671	   0.27545	   2.04534	  -7.73969
32038.42637	   2.00000	   0.02528	   2.07116	   0.31412	   2.09484	  -8.62391
32093.49237	   2.00000	   0.01999	   2.12260	   0.36808	   2.15428	  -9.83771
47711.94383	   3.00000	20004.45300	   0.29515	  -0.02219	   0.29598	   4.30052
47712.08583	   3.00000	15829.12600	   0.30350	  -0.00089	   0.30350	   0.16807
47712.22783	   3.00000	12516.70300	   0.31164	   0.01698	   0.31210	  -3.11897
47712.36983	   3.00000	9909.44240	   0.32045	   0.03257	   0.32210	  -5.80438
47712.53383	   3.00000	7835.48000	   0.33052	   0.04742	   0.33391	  -8.16432
47712.73483	   3.00000	6217.24610	   0.34278	   0.05933	   0.34787	  -9.82017
47712.97283	   3.00000	4905.29100	   0.35375	   0.07120	   0.36085	 -11.37916
47713.21183	   3.00000	3881.27370	   0.36703	   0.08107	   0.37588	 -12.45553
47713.44983	   3.00000	3070.98270	   0.38250	   0.09085	   0.39314	 -13.36062
47713.68783	   3.00000	2430.77780	   0.39666	   0.10297	   0.40981	 -14.55307
47713.92583	   3.00000	1923.15370	   0.41475	   0.11160	   0.42950	 -15.06080
47714.16383	   3.00000	1522.43580	   0.43259	   0.12312	   0.44977	 -15.88699
47714.40183	   3.00000	1203.84460	   0.45065	   0.13088	   0.46927	 -16.19436
47714.64083	   3.00000	 952.86591	   0.46988	   0.14208	   0.49089	 -16.82428
47714.87883	   3.00000	 754.27557	   0.49267	   0.15305	   0.51590	 -17.25793
47715.11583	   3.00000	 596.71857	   0.51461	   0.16299	   0.53980	 -17.57397
47715.35383	   3.00000	 471.96338	   0.53965	   0.17264	   0.56659	 -17.74020
47715.59283	   3.00000	 373.20856	   0.56416	   0.18297	   0.59309	 -17.96859
47715.83083	   3.00000	 295.47278	   0.59167	   0.19475	   0.62290	 -18.21926
47716.06983	   3.00000	 233.87738	   0.61907	   0.20750	   0.65292	 -18.52974
47716.30783	   3.00000	 185.05922	   0.65025	   0.22085	   0.68674	 -18.75974
47716.54383	   3.00000	 146.35823	   0.68431	   0.23296	   0.72287	 -18.80055
47716.77983	   3.00000	 115.77804	   0.72072	   0.24861	   0.76240	 -19.03176
47717.01383	   3.00000	  91.67210	   0.76067	   0.25973	   0.80379	 -18.85229
47717.25983	   3.00000	  72.51701	   0.80065	   0.27231	   0.84569	 -18.78394
47717.48883	   3.00000	  57.36816	   0.84500	   0.28103	   0.89051	 -18.39593
47717.72483	   3.00000	  45.36290	   0.88906	   0.29260	   0.93597	 -18.21715
47717.95783	   3.00000	  35.93134	   0.93403	   0.30099	   0.98133	 -17.86148
47718.20783	   3.00000	  28.40909	   0.97960	   0.31120	   1.02784	 -17.62420
47718.42283	   3.00000	  22.48202	   1.02472	   0.31981	   1.07346	 -17.33286
47718.68683	   3.00000	  17.79613	   1.07286	   0.33052	   1.12261	 -17.12266
47718.93983	   3.00000	  14.06813	   1.12363	   0.34299	   1.17482	 -16.97465
47719.15583	   3.00000	  11.14480	   1.17721	   0.35432	   1.22937	 -16.75073
47719.42283	   3.00000	   8.81772	   1.23321	   0.36800	   1.28694	 -16.61552
47719.60083	   3.00000	   6.97545	   1.30430	   0.38200	   1.35909	 -16.32420
47719.81883	   3.00000	   5.51730	   1.36570	   0.37771	   1.41697	 -15.45979
47720.08883	   3.00000	   4.36941	   1.44291	   0.38586	   1.49361	 -14.97172
47720.42383	   3.00000	   3.45686	   1.50694	   0.37091	   1.55192	 -13.82754
47720.84183	   3.00000	   2.73547	   1.58308	   0.34880	   1.62105	 -12.42548
47721.36683	   3.00000	   2.16054	   1.64434	   0.32610	   1.67636	 -11.21714
47722.02683	   3.00000	   1.70952	   1.69335	   0.29382	   1.71865	  -9.84358
47722.85483	   3.00000	   1.35352	   1.73557	   0.25774	   1.75460	  -8.44693
47723.89783	   3.00000	   1.07079	   1.76994	   0.22666	   1.78440	  -7.29762
47725.21183	   3.00000	   0.84734	   1.79514	   0.19942	   1.80618	  -6.33898
47726.86783	   3.00000	   0.67072	   1.81457	   0.17441	   1.82293	  -5.49013
47728.95583	   3.00000	   0.53067	   1.82958	   0.15532	   1.83616	  -4.85237
47731.59283	   3.00000	   0.41976	   1.84315	   0.14051	   1.84850	  -4.35949
47734.92383	   3.00000	   0.33183	   1.85533	   0.13158	   1.85999	  -4.05649
47739.12983	   3.00000	   0.26261	   1.86508	   0.12774	   1.86945	  -3.91811
47744.43783	   3.00000	   0.20791	   1.87339	   0.12762	   1.87773	  -3.89707
47751.14283	   3.00000	   0.16452	   1.88205	   0.12977	   1.88652	  -3.94447
47759.61883	   3.00000	   0.13007	   1.89311	   0.13574	   1.89797	  -4.10121
47770.30883	   3.00000	   0.10309	   1.90585	   0.14759	   1.91155	  -4.42823
47783.82283	   3.00000	   0.08153	   1.91919	   0.16558	   1.92632	  -4.93111
47800.92083	   3.00000	   0.06443	   1.93478	   0.18889	   1.94398	  -5.57617
47822.50683	   3.00000	   0.05102	   1.95472	   0.21083	   1.96605	  -6.15595
47849.74983	   3.00000	   0.04042	   1.98655	   0.24257	   2.00130	  -6.96183
47884.24584	   3.00000	   0.03192	   2.02421	   0.28861	   2.04468	  -8.11459
47927.79284	   3.00000	   0.02528	   2.05848	   0.34339	   2.08692	  -9.47070
47982.85784	   3.00000	   0.01999	   2.09362	   0.39403	   2.13038	 -10.65878
63405.68230	   4.00000	20004.45300	   0.29549	  -0.02287	   0.29637	   4.42590
63405.82530	   4.00000	15829.12600	   0.30287	  -0.00095	   0.30288	   0.17933
63405.96730	   4.00000	12516.70300	   0.31094	   0.01705	   0.31141	  -3.13919
63406.10930	   4.00000	9909.44240	   0.32065	   0.03270	   0.32231	  -5.82343
63406.27330	   4.00000	7835.48000	   0.33136	   0.04745	   0.33474	  -8.14973
63406.47430	   4.00000	6217.24610	   0.34263	   0.05918	   0.34770	  -9.79937
63406.71230	   4.00000	4905.29100	   0.35378	   0.07207	   0.36104	 -11.51385
63406.95030	   4.00000	3881.27370	   0.36797	   0.08377	   0.37739	 -12.82454
63407.18830	   4.00000	3070.98270	   0.38267	   0.09171	   0.39351	 -13.47739
63407.42730	   4.00000	2430.77780	   0.39832	   0.10374	   0.41160	 -14.59862
63407.66530	   4.00000	1923.15370	   0.41463	   0.11326	   0.42982	 -15.27852
63407.90330	   4.00000	1522.43580	   0.43103	   0.12224	   0.44802	 -15.83290
63408.14130	   4.00000	1203.84460	   0.45090	   0.13241	   0.46994	 -16.36502
63408.38030	   4.00000	 952.86591	   0.47172	   0.14105	   0.49236	 -16.64745
63408.61830	   4.00000	 754.27557	   0.49178	   0.15183	   0.51469	 -17.15759
63408.85530	   4.00000	 596.71857	   0.51651	   0.16242	   0.54144	 -17.45662
63409.09330	   4.00000	 471.96338	   0.53910	   0.17327	   0.56626	 -17.81819
63409.33230	   4.00000	 373.20856	   0.56659	   0.18249	   0.59526	 -17.85306
63409.56930	   4.00000	 295.47278	   0.59104	   0.19560	   0.62256	 -18.31127
63409.80930	   4.00000	 233.87738	   0.62116	   0.20757	   0.65492	 -18.47800
63410.04730	   4.00000	 185.05922	   0.65272	   0.22028	   0.68889	 -18.64844
63410.28330	   4.00000	 146.35823	   0.68642	   0.23490	   0.72550	 -18.89173
63410.51930	   4.00000	 115.77804	   0.72174	   0.24687	   0.76279	 -18.88318
63410.75430	   4.00000	  91.67210	   0.75990	   0.25803	   0.80251	 -18.75566
63410.99931	   4.00000	  72.51701	   0.80360	   0.27231	   0.84849	 -18.71939
63411.22831	   4.00000	  57.36816	   0.84552	   0.28228	   0.89140	 -18.46154
63411.46531	   4.00000	  45.36290	   0.89057	   0.29081	   0.93685	 -18.08443
63411.69731	   4.00000	  35.93134	   0.93619	   0.29958	   0.98295	 -17.74473
63411.94731	   4.00000	  28.40909	   0.98122	   0.31078	   1.02926	 -17.57441
63412.16231	   4.00000	  22.48202	   1.02576	   0.31920	   1.07428	 -17.28534
63412.42731	   4.00000	  17.79613	   1.07427	   0.32956	   1.12368	 -17.05496
63412.67931	   4.00000	  14.06813	   1.12454	   0.34335	   1.17579	 -16.97873
63412.89531	   4.00000	  11.14480	   1.17877	   0.35729	   1.23172	 -16.86225
63413.16231	   4.00000	   8.81772	   1.23878	   0.36917	   1.29262	 -16.59445
63413.34031	   4.00000	   6.97545	   1.29867	   0.37463	   1.35163	 -16.09151
63413.55831	   4.00000	   5.51730	   1.37163	   0.38388	   1.42433	 -15.63560
63413.82831	   4.00000	   4.36941	   1.43754	   0.37476	   1.48558	 -14.61154
63414.16331	   4.00000	   3.45686	   1.51489	   0.36688	   1.55868	 -13.61391
63414.58231	   4.00000	   2.73547	   1.57753	   0.34912	   1.61570	 -12.47882
63415.10731	   4.00000	   2.16054	   1.63710	   0.31609	   1.66734	 -10.92808
63415.76631	   4.00000	   1.70952	   1.69153	   0.28476	   1.71533	  -9.55586
63416.59431	   4.00000	   1.35352	   1.73095	   0.25362	   1.74943	  -8.33565
63417.63731	   4.00000	   1.07079	   1.76169	   0.22285	   1.77573	  -7.20960
63418.95131	   4.00000	   0.84734	   1.78566	   0.19472	   1.79624	  -6.22336
63420.60731	   4.00000	   0.67072	   1.80515	   0.17131	   1.81326	  -5.42127
63422.69631	   4.00000	   0.53067	   1.82027	   0.15215	   1.82662	  -4.77804
63425.33231	   4.00000	   0.41976	   1.83272	   0.13855	   1.83795	  -4.32319
63428.66431	   4.00000	   0.33183	   1.84267	   0.12961	   1.84723	  -4.02336
63432.86931	   4.00000	   0.26261	   1.85337	   0.12356	   1.85748	  -3.81428
63438.17831	   4.00000	   0.20791	   1.86469	   0.12355	   1.86878	  -3.79067
63444.88231	   4.00000	   0.16452	   1.87602	   0.12987	   1.88051	  -3.95990
63453.35931	   4.00000	   0.13007	   1.88543	   0.14089	   1.89068	  -4.27340
63464.04931	   4.00000	   0.10309	   1.89382	   0.15413	   1.90008	  -4.65294
63477.56331	   4.00000	   0.08153	   1.90546	   0.16827	   1.91288	  -5.04678
63494.66031	   4.00000	   0.06443	   1.92222	   0.18869	   1.93146	  -5.60626
63516.24731	   4.00000	   0.05102	   1.94518	   0.21574	   1.95711	  -6.32879
63543.49031	   4.00000	   0.04042	   1.96745	   0.24855	   1.98309	  -7.20014
63577.98531	   4.00000	   0.03192	   1.99831	   0.28211	   2.01812	  -8.03549
63621.53332	   4.00000	   0.02528	   2.04758	   0.32185	   2.07272	  -8.93289
63676.59832	   4.00000	   0.01999	   2.10948	   0.38075	   2.14357	 -10.23141
78970.00680	   5.00000	20004.45300	   0.29657	  -0.02191	   0.29738	   4.22570
78970.14880	   5.00000	15829.12600	   0.30416	  -0.00111	   0.30416	   0.20903
78970.29080	   5.00000	12516.70300	   0.31168	   0.01747	   0.31217	  -3.20838
78970.43280	   5.00000	9909.44240	   0.32231	   0.03442	   0.32415	  -6.09594
78970.59680	   5.00000	7835.48000	   0.33118	   0.04588	   0.33434	  -7.88652
78970.79780	   5.00000	6217.24610	   0.34367	   0.05940	   0.34877	  -9.80540
78971.03580	   5.00000	4905.29100	   0.35386	   0.07129	   0.36097	 -11.39103
78971.27380	   5.00000	3881.27370	   0.36887	   0.08425	   0.37837	 -12.86530
78971.51280	   5.00000	3070.98270	   0.38361	   0.09330	   0.39479	 -13.66987
78971.75080	   5.00000	2430.77780	   0.39811	   0.10225	   0.41103	 -14.40482
78971.98880	   5.00000	1923.15370	   0.41651	   0.11187	   0.43127	 -15.03426
78972.22680	   5.00000	1522.43580	   0.43245	   0.12367	   0.44979	 -15.95944
78972.46480	   5.00000	1203.84460	   0.45091	   0.13293	   0.47009	 -16.42525
78972.70380	   5.00000	 952.86591	   0.47292	   0.14290	   0.49403	 -16.81267
