time/s	           cycle number	freq/Hz	           Re(Z)/Ohm	  -Im(Z)/Ohm	   |Z|/Ohm	   Phase(Z)/deg
12525.56637	   1.00000	20004.45300	   0.26859	  -0.01511	   0.26901	   3.22020
12525.70937	   1.00000	15829.12600	   0.27977	   0.00508	   0.27982	  -1.04105
12525.85137	   1.00000	12516.70300	   0.28738	   0.02432	   0.28841	  -4.83796
12525.99337	   1.00000	9909.44240	   0.29862	   0.03787	   0.30101	  -7.22722
12526.15737	   1.00000	7835.48000	   0.31003	   0.05486	   0.31484	 -10.03512
12526.35837	   1.00000	6217.24610	   0.32041	   0.06677	   0.32730	 -11.77179
12526.59637	   1.00000	4905.29100	   0.33503	   0.07747	   0.34387	 -13.02036
12526.83437	   1.00000	3881.27370	   0.34957	   0.08963	   0.36088	 -14.38083
12527.07337	   1.00000	3070.98270	   0.36510	   0.09930	   0.37836	 -15.21512
12527.31137	   1.00000	2430.77780	   0.38330	   0.10962	   0.39867	 -15.95957
12527.54937	   1.00000	1923.15370	   0.39976	   0.11992	   0.41736	 -16.69854
12527.78737	   1.00000	1522.43580	   0.41848	   0.12974	   0.43813	 -17.22495
12528.02537	   1.00000	1203.84460	   0.43830	   0.13879	   0.45975	 -17.57083
12528.26437	   1.00000	 952.86591	   0.45966	   0.14978	   0.48344	 -18.04793
12528.50237	   1.00000	 754.27557	   0.48351	   0.15792	   0.50865	 -18.08760
12528.73937	   1.00000	 596.71857	   0.50707	   0.16884	   0.53444	 -18.41599
12528.97737	   1.00000	 471.96338	   0.53350	   0.17827	   0.56250	 -18.47720
12529.21637	   1.00000	 373.20856	   0.55978	   0.18755	   0.59037	 -18.52321
12529.45437	   1.00000	 295.47278	   0.58940	   0.19647	   0.62128	 -18.43556
12529.69337	   1.00000	 233.87738	   0.61997	   0.20653	   0.65346	 -18.42442
12529.93137	   1.00000	 185.05922	   0.65026	   0.21583	   0.68514	 -18.36195
12530.16737	   1.00000	 146.35823	   0.68308	   0.22560	   0.71938	 -18.27698
12530.40437	   1.00000	 115.77804	   0.71904	   0.23724	   0.75717	 -18.25942
12530.63837	   1.00000	  91.67210	   0.75763	   0.24514	   0.79630	 -17.92936
12530.88337	   1.00000	  72.51701	   0.79741	   0.25269	   0.83649	 -17.58299
12531.11237	   1.00000	  57.36816	   0.83676	   0.25878	   0.87586	 -17.18485
12531.34937	   1.00000	  45.36290	   0.87806	   0.26571	   0.91739	 -16.83649
12531.58137	   1.00000	  35.93134	   0.91888	   0.26940	   0.95756	 -16.34043
12531.83237	   1.00000	  28.40909	   0.95951	   0.27304	   0.99760	 -15.88426
12532.04637	   1.00000	  22.48202	   1.00350	   0.27722	   1.04108	 -15.44293
12532.31137	   1.00000	  17.79613	   1.04864	   0.28097	   1.08563	 -14.99924
12532.56337	   1.00000	  14.06813	   1.09427	   0.28509	   1.13080	 -14.60283
12532.77937	   1.00000	  11.14480	   1.14214	   0.28481	   1.17712	 -14.00200
12533.04737	   1.00000	   8.81772	   1.19204	   0.28219	   1.22499	 -13.31850
12533.22537	   1.00000	   6.97545	   1.24275	   0.27051	   1.27185	 -12.28020
12533.44337	   1.00000	   5.51730	   1.28828	   0.26292	   1.31484	 -11.53477
12533.71237	   1.00000	   4.36941	   1.33351	   0.24224	   1.35533	 -10.29572
12534.04737	   1.00000	   3.45686	   1.37606	   0.22576	   1.39446	  -9.31701
12534.46637	   1.00000	   2.73547	   1.40609	   0.20250	   1.42059	  -8.19505
12534.99137	   1.00000	   2.16054	   1.43521	   0.17869	   1.44629	  -7.09707
12535.65037	   1.00000	   1.70952	   1.45768	   0.15968	   1.46640	  -6.25151
12536.47937	   1.00000	   1.35352	   1.47468	   0.14340	   1.48164	  -5.55403
12537.52137	   1.00000	   1.07079	   1.48863	   0.12894	   1.49420	  -4.95025
12538.83537	   1.00000	   0.84734	   1.50163	   0.11673	   1.50616	  -4.44487
12540.49137	   1.00000	   0.67072	   1.51243	   0.10881	   1.51634	  -4.11515
12542.58037	   1.00000	   0.53067	   1.52173	   0.10409	   1.52528	  -3.91297
12545.21637	   1.00000	   0.41976	   1.53019	   0.10139	   1.53354	  -3.79076
12548.54837	   1.00000	   0.33183	   1.53876	   0.10105	   1.54207	  -3.75728
12552.75437	   1.00000	   0.26261	   1.54803	   0.10282	   1.55144	  -3.79982
12558.06237	   1.00000	   0.20791	   1.55841	   0.10824	   1.56216	  -3.97331
12564.76637	   1.00000	   0.16452	   1.56833	   0.11696	   1.57268	  -4.26495
12573.24237	   1.00000	   0.13007	   1.57786	   0.12833	   1.58307	  -4.64975
12583.93237	   1.00000	   0.10309	   1.58956	   0.14085	   1.59578	  -5.06368
12597.44637	   1.00000	   0.08153	   1.60578	   0.15840	   1.61357	  -5.63370
12614.54437	   1.00000	   0.06443	   1.62401	   0.18334	   1.63433	  -6.44118
12636.13037	   1.00000	   0.05102	   1.64223	   0.21595	   1.65636	  -7.49139
12663.37337	   1.00000	   0.04042	   1.65831	   0.25083	   1.67717	  -8.60118
12697.86837	   1.00000	   0.03192	   1.68105	   0.28522	   1.70508	  -9.62962
12741.41538	   1.00000	   0.02528	   1.71534	   0.32480	   1.74582	 -10.72192
12796.48038	   1.00000	   0.01999	   1.75874	   0.37723	   1.79874	 -12.10596
28196.61028	   2.00000	20004.45300	   0.27616	  -0.01454	   0.27654	   3.01289
28196.75328	   2.00000	15829.12600	   0.28513	   0.00613	   0.28519	  -1.23260
28196.89528	   2.00000	12516.70300	   0.29275	   0.02384	   0.29372	  -4.65617
28197.03728	   2.00000	9909.44240	   0.30360	   0.04150	   0.30642	  -7.78339
28197.20128	   2.00000	7835.48000	   0.31439	   0.05413	   0.31902	  -9.76966
28197.40228	   2.00000	6217.24610	   0.32773	   0.06752	   0.33461	 -11.64184
28197.64028	   2.00000	4905.29100	   0.34263	   0.08087	   0.35205	 -13.28023
28197.87928	   2.00000	3881.27370	   0.35635	   0.08955	   0.36743	 -14.10644
28198.11728	   2.00000	3070.98270	   0.37254	   0.10193	   0.38624	 -15.30251
28198.35528	   2.00000	2430.77780	   0.38875	   0.11246	   0.40469	 -16.13481
28198.59328	   2.00000	1923.15370	   0.40661	   0.12134	   0.42433	 -16.61545
28198.83128	   2.00000	1522.43580	   0.42613	   0.13176	   0.44604	 -17.18228
28199.06928	   2.00000	1203.84460	   0.44683	   0.14025	   0.46832	 -17.42588
28199.30828	   2.00000	 952.86591	   0.46779	   0.15223	   0.49194	 -18.02644
28199.54628	   2.00000	 754.27557	   0.49152	   0.16072	   0.51713	 -18.10644
28199.78328	   2.00000	 596.71857	   0.51666	   0.16903	   0.54361	 -18.11589
28200.02128	   2.00000	 471.96338	   0.54280	   0.17975	   0.57179	 -18.32215
28200.26028	   2.00000	 373.20856	   0.56984	   0.18936	   0.60048	 -18.38209
28200.49728	   2.00000	 295.47278	   0.59852	   0.20030	   0.63114	 -18.50315
28200.73728	   2.00000	 233.87738	   0.63061	   0.21076	   0.66490	 -18.48023
28200.97528	   2.00000	 185.05922	   0.66190	   0.21929	   0.69728	 -18.33006
28201.21128	   2.00000	 146.35823	   0.69694	   0.22840	   0.73341	 -18.14471
28201.44728	   2.00000	 115.77804	   0.73130	   0.23785	   0.76901	 -18.01639
28201.68228	   2.00000	  91.67210	   0.76963	   0.24673	   0.80821	 -17.77521
28201.92728	   2.00000	  72.51701	   0.80882	   0.25423	   0.84784	 -17.44894
28202.15628	   2.00000	  57.36816	   0.84987	   0.26206	   0.88935	 -17.13708
28202.39328	   2.00000	  45.36290	   0.89075	   0.26694	   0.92988	 -16.68238
28202.62528	   2.00000	  35.93134	   0.93184	   0.27165	   0.97063	 -16.25249
28202.87528	   2.00000	  28.40909	   0.97481	   0.27466	   1.01277	 -15.73544
28203.09028	   2.00000	  22.48202	   1.01788	   0.28132	   1.05604	 -15.44972
28203.35528	   2.00000	  17.79613	   1.06173	   0.28464	   1.09922	 -15.00738
28203.60728	   2.00000	  14.06813	   1.10850	   0.28870	   1.14548	 -14.59791
28203.82328	   2.00000	  11.14480	   1.15816	   0.28844	   1.19354	 -13.98519
28204.09028	   2.00000	   8.81772	   1.20962	   0.28724	   1.24326	 -13.35836
28204.26828	   2.00000	   6.97545	   1.25829	   0.27735	   1.28850	 -12.43020
28204.48728	   2.00000	   5.51730	   1.30939	   0.26925	   1.33679	 -11.61992
28204.75628	   2.00000	   4.36941	   1.35239	   0.24677	   1.37472	 -10.34105
28205.09128	   2.00000	   3.45686	   1.39625	   0.22803	   1.41475	  -9.27548
28205.51028	   2.00000	   2.73547	   1.42913	   0.20735	   1.44410	  -8.25543
28206.03528	   2.00000	   2.16054	   1.45577	   0.18327	   1.46726	  -7.17538
28206.69428	   2.00000	   1.70952	   1.47937	   0.16336	   1.48836	  -6.30133
28207.52328	   2.00000	   1.35352	   1.49704	   0.14642	   1.50418	  -5.58616
28208.56528	   2.00000	   1.07079	   1.51141	   0.13126	   1.51710	  -4.96340
28209.87828	   2.00000	   0.84734	   1.52379	   0.11911	   1.52843	  -4.46946
28211.53428	   2.00000	   0.67072	   1.53477	   0.11071	   1.53875	  -4.12596
28213.62328	   2.00000	   0.53067	   1.54576	   0.10562	   1.54937	  -3.90879
28216.25928	   2.00000	   0.41976	   1.55493	   0.10321	   1.55835	  -3.79739
28219.59128	   2.00000	   0.33183	   1.56300	   0.10334	   1.56642	  -3.78263
28223.79628	   2.00000	   0.26261	   1.57304	   0.10474	   1.57652	  -3.80947
28229.10528	   2.00000	   0.20791	   1.58388	   0.11010	   1.58770	  -3.97637
28235.80928	   2.00000	   0.16452	   1.59496	   0.12014	   1.59948	  -4.30756
28244.28529	   2.00000	   0.13007	   1.60454	   0.13387	   1.61011	  -4.76923
28254.97529	   2.00000	   0.10309	   1.61392	   0.14833	   1.62072	  -5.25109
28268.48929	   2.00000	   0.08153	   1.62740	   0.16417	   1.63566	  -5.76052
28285.58729	   2.00000	   0.06443	   1.64508	   0.18612	   1.65558	  -6.45485
28307.17329	   2.00000	   0.05102	   1.66585	   0.21530	   1.67970	  -7.36418
28334.41629	   2.00000	   0.04042	   1.68669	   0.24969	   1.70508	  -8.42069
28368.91129	   2.00000	   0.03192	   1.71222	   0.28547	   1.73586	  -9.46552
28412.45829	   2.00000	   0.02528	   1.75001	   0.32609	   1.78013	 -10.55527
28467.52330	   2.00000	   0.01999	   1.79928	   0.38231	   1.83945	 -11.99562
43311.82532	   3.00000	20004.45300	   0.27946	  -0.01550	   0.27989	   3.17363
43311.96832	   3.00000	15829.12600	   0.28697	   0.00808	   0.28708	  -1.61291
43312.11032	   3.00000	12516.70300	   0.29637	   0.02500	   0.29742	  -4.82149
43312.25232	   3.00000	9909.44240	   0.30761	   0.04057	   0.31028	  -7.51412
43312.41632	   3.00000	7835.48000	   0.31907	   0.05639	   0.32402	 -10.02204
43312.61732	   3.00000	6217.24610	   0.33153	   0.06939	   0.33871	 -11.82098
43312.85532	   3.00000	4905.29100	   0.34348	   0.08106	   0.35292	 -13.27849
43313.09432	   3.00000	3881.27370	   0.35753	   0.09077	   0.36888	 -14.24534
43313.33232	   3.00000	3070.98270	   0.37482	   0.10271	   0.38864	 -15.32399
43313.57032	   3.00000	2430.77780	   0.39242	   0.11135	   0.40792	 -15.84178
43313.80832	   3.00000	1923.15370	   0.40933	   0.12146	   0.42697	 -16.52673
43314.04632	   3.00000	1522.43580	   0.42857	   0.13189	   0.44840	 -17.10590
43314.28432	   3.00000	1203.84460	   0.45020	   0.14233	   0.47216	 -17.54487
43314.52332	   3.00000	 952.86591	   0.47233	   0.15147	   0.49602	 -17.78006
43314.76132	   3.00000	 754.27557	   0.49632	   0.16068	   0.52168	 -17.93835
43314.99832	   3.00000	 596.71857	   0.51988	   0.17156	   0.54746	 -18.26323
43315.23632	   3.00000	 471.96338	   0.54507	   0.18048	   0.57418	 -18.32074
43315.47532	   3.00000	 373.20856	   0.57366	   0.18928	   0.60408	 -18.26022
43315.71332	   3.00000	 295.47278	   0.60287	   0.20062	   0.63538	 -18.40625
43315.95232	   3.00000	 233.87738	   0.63447	   0.20982	   0.66826	 -18.29893
43316.19032	   3.00000	 185.05922	   0.66647	   0.21968	   0.70174	 -18.24285
43316.42632	   3.00000	 146.35823	   0.70158	   0.23152	   0.73879	 -18.26291
43316.66232	   3.00000	 115.77804	   0.73755	   0.23993	   0.77559	 -18.02003
43316.89732	   3.00000	  91.67210	   0.77618	   0.24847	   0.81498	 -17.75057
43317.14232	   3.00000	  72.51701	   0.81289	   0.25721	   0.85261	 -17.55800
43317.37132	   3.00000	  57.36816	   0.85482	   0.26237	   0.89417	 -17.06285
43317.60832	   3.00000	  45.36290	   0.89553	   0.26756	   0.93465	 -16.63451
43317.84032	   3.00000	  35.93134	   0.93859	   0.27233	   0.97730	 -16.17983
43318.09032	   3.00000	  28.40909	   0.98068	   0.27754	   1.01920	 -15.80205
43318.30532	   3.00000	  22.48202	   1.02245	   0.28267	   1.06081	 -15.45441
43318.57032	   3.00000	  17.79613	   1.06824	   0.28633	   1.10595	 -15.00472
43318.82232	   3.00000	  14.06813	   1.11482	   0.28798	   1.15142	 -14.48401
43319.03832	   3.00000	  11.14480	   1.16291	   0.29050	   1.19865	 -14.02559
43319.30532	   3.00000	   8.81772	   1.21411	   0.28929	   1.24810	 -13.40189
43319.48332	   3.00000	   6.97545	   1.27066	   0.28220	   1.30162	 -12.52179
43319.70232	   3.00000	   5.51730	   1.31550	   0.26676	   1.34228	 -11.46314
43319.97132	   3.00000	   4.36941	   1.36434	   0.25366	   1.38772	 -10.53227
43320.30632	   3.00000	   3.45686	   1.40256	   0.23284	   1.42176	  -9.42575
43320.72532	   3.00000	   2.73547	   1.43747	   0.20800	   1.45244	  -8.23346
43321.25032	   3.00000	   2.16054	   1.46777	   0.18751	   1.47970	  -7.28033
43321.90932	   3.00000	   1.70952	   1.49061	   0.16646	   1.49987	  -6.37188
43322.73832	   3.00000	   1.35352	   1.50766	   0.14787	   1.51490	  -5.60166
43323.78032	   3.00000	   1.07079	   1.52373	   0.13252	   1.52949	  -4.97071
43325.09432	   3.00000	   0.84734	   1.53716	   0.12097	   1.54191	  -4.49963
43326.75032	   3.00000	   0.67072	   1.54848	   0.11316	   1.55261	  -4.17962
43328.83932	   3.00000	   0.53067	   1.55717	   0.10790	   1.56091	  -3.96375
43331.47632	   3.00000	   0.41976	   1.56695	   0.10402	   1.57040	  -3.79801
43334.80732	   3.00000	   0.33183	   1.57712	   0.10385	   1.58053	  -3.76752
43339.01332	   3.00000	   0.26261	   1.58684	   0.10744	   1.59047	  -3.87328
43344.32132	   3.00000	   0.20791	   1.59504	   0.11426	   1.59913	  -4.09749
43351.02532	   3.00000	   0.16452	   1.60393	   0.12209	   1.60857	  -4.35305
43359.50232	   3.00000	   0.13007	   1.61482	   0.13222	   1.62022	  -4.68098
43370.19232	   3.00000	   0.10309	   1.62871	   0.14624	   1.63527	  -5.13087
43383.70633	   3.00000	   0.08153	   1.64353	   0.16663	   1.65196	  -5.78907
43400.80333	   3.00000	   0.06443	   1.65972	   0.19178	   1.67076	  -6.59119
43422.38933	   3.00000	   0.05102	   1.67616	   0.21690	   1.69013	  -7.37337
43449.63233	   3.00000	   0.04042	   1.70171	   0.24682	   1.71952	  -8.25276
43484.12733	   3.00000	   0.03192	   1.73646	   0.28868	   1.76029	  -9.43900
43527.67433	   3.00000	   0.02528	   1.77108	   0.34387	   1.80416	 -10.98777
43582.73934	   3.00000	   0.01999	   1.80436	   0.40253	   1.84872	 -12.57612
58107.49520	   4.00000	20004.45300	   0.27800	  -0.01518	   0.27841	   3.12457
58107.63820	   4.00000	15829.12600	   0.28848	   0.00689	   0.28856	  -1.36779
58107.78020	   4.00000	12516.70300	   0.29916	   0.02597	   0.30029	  -4.96187
58107.92220	   4.00000	9909.44240	   0.30717	   0.04163	   0.30998	  -7.71867
58108.08620	   4.00000	7835.48000	   0.31939	   0.05769	   0.32455	 -10.23832
58108.28720	   4.00000	6217.24610	   0.33262	   0.06808	   0.33952	 -11.56756
58108.52520	   4.00000	4905.29100	   0.34674	   0.08047	   0.35595	 -13.06581
58108.76420	   4.00000	3881.27370	   0.35915	   0.09134	   0.37058	 -14.26917
58109.00220	   4.00000	3070.98270	   0.37553	   0.10232	   0.38921	 -15.24086
58109.24020	   4.00000	2430.77780	   0.39346	   0.11335	   0.40946	 -16.07084
58109.47820	   4.00000	1923.15370	   0.41049	   0.12193	   0.42821	 -16.54393
58109.71620	   4.00000	1522.43580	   0.43170	   0.13246	   0.45156	 -17.05784
58109.95420	   4.00000	1203.84460	   0.45104	   0.14330	   0.47326	 -17.62571
58110.19320	   4.00000	 952.86591	   0.47409	   0.15221	   0.49793	 -17.79906
58110.43120	   4.00000	 754.27557	   0.49793	   0.16074	   0.52323	 -17.89113
58110.66820	   4.00000	 596.71857	   0.52238	   0.17253	   0.55014	 -18.27735
58110.90620	   4.00000	 471.96338	   0.54847	   0.18076	   0.57749	 -18.24034
58111.14520	   4.00000	 373.20856	   0.57651	   0.19029	   0.60710	 -18.26665
58111.38320	   4.00000	 295.47278	   0.60423	   0.20186	   0.63706	 -18.47290
58111.62220	   4.00000	 233.87738	   0.63552	   0.21109	   0.66966	 -18.37413
58111.86020	   4.00000	 185.05922	   0.66869	   0.22114	   0.70431	 -18.29950
58112.09620	   4.00000	 146.35823	   0.70265	   0.23122	   0.73971	 -18.21449
58112.33220	   4.00000	 115.77804	   0.74113	   0.24143	   0.77946	 -18.04378
58112.56720	   4.00000	  91.67210	   0.77768	   0.24744	   0.81609	 -17.64993
58112.81120	   4.00000	  72.51701	   0.81577	   0.25558	   0.85487	 -17.39574
58113.04020	   4.00000	  57.36816	   0.85697	   0.26361	   0.89660	 -17.09799
58113.27720	   4.00000	  45.36290	   0.89943	   0.26747	   0.93835	 -16.56162
58113.50920	   4.00000	  35.93134	   0.94114	   0.27356	   0.98009	 -16.20737
58113.76020	   4.00000	  28.40909	   0.98183	   0.27841	   1.02054	 -15.83116
58113.97420	   4.00000	  22.48202	   1.02561	   0.28171	   1.06360	 -15.35890
58114.23920	   4.00000	  17.79613	   1.07103	   0.28647	   1.10868	 -14.97430
58114.49120	   4.00000	  14.06813	   1.11676	   0.29097	   1.15404	 -14.60349
58114.70720	   4.00000	  11.14480	   1.16746	   0.29335	   1.20375	 -14.10467
58114.97520	   4.00000	   8.81772	   1.21840	   0.29213	   1.25293	 -13.48286
58115.15320	   4.00000	   6.97545	   1.26989	   0.28087	   1.30058	 -12.47154
58115.37120	   4.00000	   5.51730	   1.31773	   0.27360	   1.34583	 -11.72954
58115.64020	   4.00000	   4.36941	   1.36675	   0.25187	   1.38976	 -10.44154
58115.97520	   4.00000	   3.45686	   1.40953	   0.23502	   1.42898	  -9.46621
58116.39420	   4.00000	   2.73547	   1.44266	   0.21203	   1.45816	  -8.36095
58116.91920	   4.00000	   2.16054	   1.47252	   0.18711	   1.48436	  -7.24163
58117.57820	   4.00000	   1.70952	   1.49733	   0.16773	   1.50669	  -6.39172
58118.40720	   4.00000	   1.35352	   1.51568	   0.15111	   1.52320	  -5.69330
58119.45020	   4.00000	   1.07079	   1.53031	   0.13499	   1.53625	  -5.04111
58120.76320	   4.00000	   0.84734	   1.54355	   0.12258	   1.54841	  -4.54073
58122.41920	   4.00000	   0.67072	   1.55479	   0.11396	   1.55896	  -4.19222
58124.50820	   4.00000	   0.53067	   1.56541	   0.10899	   1.56920	  -3.98264
58127.14520	   4.00000	   0.41976	   1.57387	   0.10679	   1.57749	  -3.88169
58130.47620	   4.00000	   0.33183	   1.58239	   0.10569	   1.58591	  -3.82114
58134.68220	   4.00000	   0.26261	   1.59221	   0.10755	   1.59584	  -3.86441
58139.99020	   4.00000	   0.20791	   1.60281	   0.11304	   1.60679	  -4.03425
58146.69420	   4.00000	   0.16452	   1.61384	   0.12253	   1.61849	  -4.34196
58155.17120	   4.00000	   0.13007	   1.62386	   0.13399	   1.62938	  -4.71689
58165.86120	   4.00000	   0.10309	   1.63579	   0.14768	   1.64244	  -5.15854
58179.37420	   4.00000	   0.08153	   1.65245	   0.16554	   1.66072	  -5.72070
58196.47220	   4.00000	   0.06443	   1.67205	   0.19126	   1.68295	  -6.52564
58218.05820	   4.00000	   0.05102	   1.69084	   0.22497	   1.70574	  -7.57881
58245.30121	   4.00000	   0.04042	   1.70827	   0.26014	   1.72796	  -8.65867
58279.79621	   4.00000	   0.03192	   1.73234	   0.29542	   1.75735	  -9.67776
58323.34321	   4.00000	   0.02528	   1.76871	   0.33671	   1.80048	 -10.77849
58378.40821	   4.00000	   0.01999	   1.81420	   0.39116	   1.85589	 -12.16721
72737.19520	   5.00000	20004.45300	   0.28120	  -0.01528	   0.28162	   3.11065
72737.33720	   5.00000	15829.12600	   0.28920	   0.00680	   0.28928	  -1.34766
72737.47920	   5.00000	12516.70300	   0.29759	   0.02468	   0.29861	  -4.74113
72737.62120	   5.00000	9909.44240	   0.30837	   0.04297	   0.31135	  -7.93210
72737.78520	   5.00000	7835.48000	   0.32018	   0.05618	   0.32507	  -9.95289
72737.98620	   5.00000	6217.24610	   0.33323	   0.06794	   0.34009	 -11.52315
72738.22420	   5.00000	4905.29100	   0.34626	   0.08103	   0.35562	 -13.17014
72738.46220	   5.00000	3881.27370	   0.36313	   0.09231	   0.37468	 -14.26294
72738.70020	   5.00000	3070.98270	   0.37777	   0.10313	   0.39159	 -15.26903
72738.93920	   5.00000	2430.77780	   0.39478	   0.11312	   0.41066	 -15.98930
72739.17720	   5.00000	1923.15370	   0.41267	   0.12226	   0.43040	 -16.50332
72739.41520	   5.00000	1522.43580	   0.43290	   0.13267	   0.45277	 -17.03867
72739.65320	   5.00000	1203.84460	   0.45328	   0.14222	   0.47506	 -17.41960
72739.89220	   5.00000	 952.86591	   0.47342	   0.15219	   0.49729	 -17.82135
