time/s	           cycle number	freq/Hz	           Re(Z)/Ohm	  -Im(Z)/Ohm	   |Z|/Ohm	   Phase(Z)/deg
7360.17971	   1.00000	20004.45300	   0.36145	  -0.02229	   0.36214	   3.52861
7360.32271	   1.00000	15829.12600	   0.36755	  -0.00385	   0.36757	   0.60065
7360.46471	   1.00000	12516.70300	   0.37587	   0.00832	   0.37596	  -1.26854
7360.60671	   1.00000	9909.44240	   0.38398	   0.01910	   0.38445	  -2.84731
7360.77071	   1.00000	7835.48000	   0.39144	   0.02960	   0.39256	  -4.32499
7360.97171	   1.00000	6217.24610	   0.39879	   0.03906	   0.40069	  -5.59477
7361.20971	   1.00000	4905.29100	   0.40799	   0.04696	   0.41069	  -6.56563
7361.44771	   1.00000	3881.27370	   0.41531	   0.05382	   0.41878	  -7.38374
7361.68571	   1.00000	3070.98270	   0.42490	   0.05892	   0.42896	  -7.89461
7361.92471	   1.00000	2430.77780	   0.43624	   0.06605	   0.44121	  -8.60911
7362.16271	   1.00000	1923.15370	   0.44677	   0.07192	   0.45252	  -9.14437
7362.40071	   1.00000	1522.43580	   0.45928	   0.07928	   0.46607	  -9.79358
7362.63871	   1.00000	1203.84460	   0.47014	   0.08527	   0.47781	 -10.27992
7362.87771	   1.00000	 952.86591	   0.48509	   0.09218	   0.49377	 -10.75936
7363.11571	   1.00000	 754.27557	   0.49741	   0.09753	   0.50688	 -11.09404
7363.35271	   1.00000	 596.71857	   0.51305	   0.10287	   0.52326	 -11.33756
7363.59071	   1.00000	 471.96338	   0.52930	   0.10950	   0.54051	 -11.68837
7363.82971	   1.00000	 373.20856	   0.54509	   0.11503	   0.55709	 -11.91627
7364.06671	   1.00000	 295.47278	   0.56392	   0.12185	   0.57693	 -12.19253
7364.30671	   1.00000	 233.87738	   0.58100	   0.12912	   0.59518	 -12.53006
7364.54471	   1.00000	 185.05922	   0.60116	   0.13322	   0.61575	 -12.49493
7364.78071	   1.00000	 146.35823	   0.62100	   0.13916	   0.63640	 -12.63041
7365.01671	   1.00000	 115.77804	   0.64297	   0.14533	   0.65919	 -12.73665
7365.25171	   1.00000	  91.67210	   0.66487	   0.15225	   0.68208	 -12.89758
7365.49671	   1.00000	  72.51701	   0.68591	   0.15804	   0.70388	 -12.97508
7365.72571	   1.00000	  57.36816	   0.70957	   0.16553	   0.72862	 -13.13098
7365.96271	   1.00000	  45.36290	   0.73235	   0.17235	   0.75236	 -13.24256
7366.19471	   1.00000	  35.93134	   0.75584	   0.18266	   0.77760	 -13.58590
7366.44571	   1.00000	  28.40909	   0.78160	   0.19581	   0.80576	 -14.06459
7366.65971	   1.00000	  22.48202	   0.80965	   0.20810	   0.83597	 -14.41409
7366.92471	   1.00000	  17.79613	   0.84183	   0.22467	   0.87130	 -14.94281
7367.17671	   1.00000	  14.06813	   0.88122	   0.24007	   0.91334	 -15.23903
7367.39271	   1.00000	  11.14480	   0.92557	   0.25204	   0.95927	 -15.23273
7367.66071	   1.00000	   8.81772	   0.97200	   0.26028	   1.00625	 -14.99089
7367.83871	   1.00000	   6.97545	   1.02218	   0.26500	   1.05597	 -14.53369
7368.05671	   1.00000	   5.51730	   1.07531	   0.25537	   1.10521	 -13.35937
7368.32571	   1.00000	   4.36941	   1.12121	   0.24626	   1.14793	 -12.38744
7368.66071	   1.00000	   3.45686	   1.16589	   0.22467	   1.18734	 -10.90744
7369.07971	   1.00000	   2.73547	   1.20489	   0.20544	   1.22228	  -9.67636
7369.60471	   1.00000	   2.16054	   1.23385	   0.18356	   1.24743	  -8.46196
7370.26371	   1.00000	   1.70952	   1.25697	   0.15992	   1.26710	  -7.25074
7371.09271	   1.00000	   1.35352	   1.27709	   0.13999	   1.28474	  -6.25551
7372.13571	   1.00000	   1.07079	   1.29098	   0.12375	   1.29690	  -5.47539
7373.44971	   1.00000	   0.84734	   1.30286	   0.11091	   1.30757	  -4.86573
7375.10471	   1.00000	   0.67072	   1.31126	   0.10004	   1.31507	  -4.36269
7377.19371	   1.00000	   0.53067	   1.31967	   0.09165	   1.32285	  -3.97256
7379.83071	   1.00000	   0.41976	   1.32782	   0.08784	   1.33073	  -3.78479
7383.16171	   1.00000	   0.33183	   1.33463	   0.08708	   1.33747	  -3.73296
7387.36771	   1.00000	   0.26261	   1.34054	   0.08899	   1.34349	  -3.79802
7392.67571	   1.00000	   0.20791	   1.34668	   0.09252	   1.34986	  -3.93036
7399.38071	   1.00000	   0.16452	   1.35543	   0.09784	   1.35896	  -4.12862
7407.85671	   1.00000	   0.13007	   1.36545	   0.10840	   1.36975	  -4.53913
7418.54671	   1.00000	   0.10309	   1.37572	   0.12358	   1.38126	  -5.13297
7432.06071	   1.00000	   0.08153	   1.38540	   0.14072	   1.39253	  -5.79980
7449.15871	   1.00000	   0.06443	   1.40015	   0.16067	   1.40934	  -6.54605
7470.74572	   1.00000	   0.05102	   1.42259	   0.18312	   1.43433	  -7.33503
7497.98772	   1.00000	   0.04042	   1.44975	   0.21679	   1.46587	  -8.50476
7532.48372	   1.00000	   0.03192	   1.47616	   0.25617	   1.49822	  -9.84482
7576.03172	   1.00000	   0.02528	   1.50442	   0.29060	   1.53223	 -10.93284
7631.09672	   1.00000	   0.01999	   1.54724	   0.32116	   1.58022	 -11.72632
23410.19663	   2.00000	20004.45300	   0.37771	  -0.01981	   0.37823	   3.00281
23410.33863	   2.00000	15829.12600	   0.38454	  -0.00337	   0.38455	   0.50199
23410.48063	   2.00000	12516.70300	   0.39271	   0.00931	   0.39282	  -1.35870
23410.62263	   2.00000	9909.44240	   0.39945	   0.02150	   0.40003	  -3.08155
23410.78663	   2.00000	7835.48000	   0.40687	   0.03122	   0.40806	  -4.38845
23410.98763	   2.00000	6217.24610	   0.41532	   0.03875	   0.41712	  -5.33104
23411.22563	   2.00000	4905.29100	   0.42260	   0.04655	   0.42516	  -6.28535
23411.46463	   2.00000	3881.27370	   0.43218	   0.05461	   0.43562	  -7.20141
23411.70263	   2.00000	3070.98270	   0.44363	   0.05893	   0.44752	  -7.56634
23411.94063	   2.00000	2430.77780	   0.45236	   0.06738	   0.45735	  -8.47196
23412.17863	   2.00000	1923.15370	   0.46312	   0.07282	   0.46881	  -8.93577
23412.41663	   2.00000	1522.43580	   0.47479	   0.07938	   0.48138	  -9.49104
23412.65463	   2.00000	1203.84460	   0.48640	   0.08608	   0.49396	 -10.03624
23412.89363	   2.00000	 952.86591	   0.50086	   0.09176	   0.50920	 -10.38197
23413.13163	   2.00000	 754.27557	   0.51572	   0.09639	   0.52466	 -10.58672
23413.36863	   2.00000	 596.71857	   0.53031	   0.10366	   0.54035	 -11.05965
23413.60663	   2.00000	 471.96338	   0.54618	   0.11073	   0.55729	 -11.46033
23413.84563	   2.00000	 373.20856	   0.56401	   0.11664	   0.57594	 -11.68387
23414.08363	   2.00000	 295.47278	   0.58144	   0.12118	   0.59393	 -11.77254
23414.32263	   2.00000	 233.87738	   0.59908	   0.12825	   0.61265	 -12.08344
23414.56063	   2.00000	 185.05922	   0.61957	   0.13592	   0.63430	 -12.37320
23414.79663	   2.00000	 146.35823	   0.63890	   0.14135	   0.65435	 -12.47518
23415.03363	   2.00000	 115.77804	   0.66162	   0.14697	   0.67774	 -12.52403
23415.26763	   2.00000	  91.67210	   0.68263	   0.15333	   0.69963	 -12.65943
23415.51263	   2.00000	  72.51701	   0.70579	   0.15923	   0.72353	 -12.71327
23415.74163	   2.00000	  57.36816	   0.72762	   0.16578	   0.74627	 -12.83474
23415.97863	   2.00000	  45.36290	   0.75138	   0.17117	   0.77063	 -12.83302
23416.21063	   2.00000	  35.93134	   0.77333	   0.18384	   0.79489	 -13.37269
23416.46163	   2.00000	  28.40909	   0.80012	   0.19436	   0.82339	 -13.65313
23416.67563	   2.00000	  22.48202	   0.82827	   0.21096	   0.85472	 -14.28945
23416.94063	   2.00000	  17.79613	   0.86293	   0.22473	   0.89172	 -14.59726
23417.19263	   2.00000	  14.06813	   0.89848	   0.23904	   0.92974	 -14.89819
23417.40863	   2.00000	  11.14480	   0.94462	   0.25036	   0.97723	 -14.84419
23417.67663	   2.00000	   8.81772	   0.99396	   0.25807	   1.02691	 -14.55460
23417.85463	   2.00000	   6.97545	   1.04510	   0.25351	   1.07540	 -13.63483
23418.07263	   2.00000	   5.51730	   1.09053	   0.24858	   1.11851	 -12.84056
23418.34163	   2.00000	   4.36941	   1.14109	   0.23217	   1.16447	 -11.50068
23418.67663	   2.00000	   3.45686	   1.18101	   0.21760	   1.20089	 -10.43952
23419.09563	   2.00000	   2.73547	   1.21508	   0.19389	   1.23045	  -9.06645
23419.62063	   2.00000	   2.16054	   1.24497	   0.17144	   1.25672	  -7.84087
23420.27963	   2.00000	   1.70952	   1.26606	   0.15124	   1.27507	  -6.81213
23421.10863	   2.00000	   1.35352	   1.28229	   0.13239	   1.28910	  -5.89441
23422.15163	   2.00000	   1.07079	   1.29494	   0.11618	   1.30014	  -5.12676
23423.46563	   2.00000	   0.84734	   1.30601	   0.10311	   1.31007	  -4.51398
23425.12063	   2.00000	   0.67072	   1.31543	   0.09405	   1.31878	  -4.08956
23427.20963	   2.00000	   0.53067	   1.32292	   0.08785	   1.32583	  -3.79926
23429.84663	   2.00000	   0.41976	   1.32855	   0.08458	   1.33124	  -3.64252
23433.17763	   2.00000	   0.33183	   1.33493	   0.08271	   1.33749	  -3.54543
23437.38363	   2.00000	   0.26261	   1.34250	   0.08436	   1.34514	  -3.59569
23442.69163	   2.00000	   0.20791	   1.34968	   0.08925	   1.35263	  -3.78330
23449.39663	   2.00000	   0.16452	   1.35649	   0.09795	   1.36002	  -4.13000
23457.87263	   2.00000	   0.13007	   1.36384	   0.10776	   1.36809	  -4.51789
23468.56363	   2.00000	   0.10309	   1.37484	   0.11960	   1.38003	  -4.97168
23482.07663	   2.00000	   0.08153	   1.38982	   0.13767	   1.39662	  -5.65710
23499.17463	   2.00000	   0.06443	   1.40746	   0.16188	   1.41674	  -6.56107
23520.76163	   2.00000	   0.05102	   1.42272	   0.19045	   1.43541	  -7.62448
23548.00463	   2.00000	   0.04042	   1.44202	   0.21673	   1.45822	  -8.54746
23582.49963	   2.00000	   0.03192	   1.47382	   0.24339	   1.49378	  -9.37735
23626.04764	   2.00000	   0.02528	   1.51484	   0.28038	   1.54057	 -10.48610
23681.11264	   2.00000	   0.01999	   1.55740	   0.32726	   1.59142	 -11.86716
39216.70502	   3.00000	20004.45300	   0.39239	  -0.01701	   0.39276	   2.48279
39216.84702	   3.00000	15829.12600	   0.39805	  -0.00438	   0.39807	   0.62990
39216.98902	   3.00000	12516.70300	   0.40403	   0.01077	   0.40418	  -1.52624
39217.13102	   3.00000	9909.44240	   0.41168	   0.02252	   0.41229	  -3.13181
39217.29502	   3.00000	7835.48000	   0.41917	   0.03179	   0.42037	  -4.33692
39217.49602	   3.00000	6217.24610	   0.42726	   0.04144	   0.42926	  -5.53921
39217.73402	   3.00000	4905.29100	   0.43782	   0.04693	   0.44032	  -6.11878
39217.97302	   3.00000	3881.27370	   0.44519	   0.05550	   0.44864	  -7.10552
39218.21102	   3.00000	3070.98270	   0.45578	   0.06265	   0.46007	  -7.82702
39218.44902	   3.00000	2430.77780	   0.46616	   0.06695	   0.47095	  -8.17255
39218.68702	   3.00000	1923.15370	   0.47757	   0.07454	   0.48335	  -8.87178
39218.92502	   3.00000	1522.43580	   0.48809	   0.08160	   0.49487	  -9.49137
39219.16302	   3.00000	1203.84460	   0.50193	   0.08634	   0.50931	  -9.75985
39219.40202	   3.00000	 952.86591	   0.51411	   0.09321	   0.52249	 -10.27586
39219.64002	   3.00000	 754.27557	   0.52855	   0.09984	   0.53789	 -10.69695
39219.87702	   3.00000	 596.71857	   0.54448	   0.10482	   0.55448	 -10.89698
39220.11502	   3.00000	 471.96338	   0.55885	   0.11071	   0.56971	 -11.20517
39220.35402	   3.00000	 373.20856	   0.57781	   0.11816	   0.58977	 -11.55725
39220.59202	   3.00000	 295.47278	   0.59438	   0.12467	   0.60731	 -11.84574
39220.83102	   3.00000	 233.87738	   0.61372	   0.12970	   0.62728	 -11.93268
39221.06902	   3.00000	 185.05922	   0.63249	   0.13639	   0.64702	 -12.16882
39221.30502	   3.00000	 146.35823	   0.65332	   0.14021	   0.66820	 -12.11260
39221.54202	   3.00000	 115.77804	   0.67497	   0.14679	   0.69075	 -12.26974
39221.77602	   3.00000	  91.67210	   0.69654	   0.15458	   0.71348	 -12.51305
39222.02102	   3.00000	  72.51701	   0.71812	   0.16113	   0.73597	 -12.64615
39222.25002	   3.00000	  57.36816	   0.74235	   0.16665	   0.76082	 -12.65263
39222.48702	   3.00000	  45.36290	   0.76475	   0.17529	   0.78459	 -12.90960
39222.71902	   3.00000	  35.93134	   0.78871	   0.18538	   0.81021	 -13.22688
39222.97002	   3.00000	  28.40909	   0.81458	   0.19746	   0.83817	 -13.62632
39223.18402	   3.00000	  22.48202	   0.84465	   0.21318	   0.87114	 -14.16510
39223.44902	   3.00000	  17.79613	   0.87994	   0.22525	   0.90832	 -14.35814
39223.70102	   3.00000	  14.06813	   0.91883	   0.24131	   0.94999	 -14.71519
39223.91702	   3.00000	  11.14480	   0.96300	   0.25034	   0.99500	 -14.57176
39224.18502	   3.00000	   8.81772	   1.01067	   0.25607	   1.04260	 -14.21747
39224.36302	   3.00000	   6.97545	   1.06050	   0.25017	   1.08961	 -13.27309
39224.58102	   3.00000	   5.51730	   1.10851	   0.24591	   1.13546	 -12.50771
39224.85002	   3.00000	   4.36941	   1.15314	   0.22742	   1.17535	 -11.15658
39225.18502	   3.00000	   3.45686	   1.19376	   0.21129	   1.21231	 -10.03726
39225.60402	   3.00000	   2.73547	   1.22580	   0.18922	   1.24032	  -8.77495
39226.12902	   3.00000	   2.16054	   1.25371	   0.16536	   1.26457	  -7.51391
39226.78802	   3.00000	   1.70952	   1.27509	   0.14584	   1.28340	  -6.52473
39227.61702	   3.00000	   1.35352	   1.29130	   0.12864	   1.29769	  -5.68893
39228.66002	   3.00000	   1.07079	   1.30292	   0.11334	   1.30784	  -4.97178
39229.97402	   3.00000	   0.84734	   1.31297	   0.10109	   1.31686	  -4.40253
39231.62902	   3.00000	   0.67072	   1.32116	   0.09148	   1.32433	  -3.96100
39233.71802	   3.00000	   0.53067	   1.32801	   0.08541	   1.33075	  -3.67973
39236.35502	   3.00000	   0.41976	   1.33461	   0.08264	   1.33716	  -3.54314
39239.68602	   3.00000	   0.33183	   1.34022	   0.08138	   1.34268	  -3.47473
39243.89203	   3.00000	   0.26261	   1.34766	   0.08294	   1.35021	  -3.52165
39249.20003	   3.00000	   0.20791	   1.35549	   0.08858	   1.35838	  -3.73874
39255.90503	   3.00000	   0.16452	   1.36379	   0.09855	   1.36735	  -4.13299
39264.38103	   3.00000	   0.13007	   1.37013	   0.11133	   1.37465	  -4.64522
39275.07203	   3.00000	   0.10309	   1.37787	   0.12385	   1.38343	  -5.13605
39288.58503	   3.00000	   0.08153	   1.39089	   0.13895	   1.39781	  -5.70485
39305.68303	   3.00000	   0.06443	   1.40768	   0.16051	   1.41681	  -6.50520
39327.27003	   3.00000	   0.05102	   1.42684	   0.18856	   1.43925	  -7.52813
39354.51303	   3.00000	   0.04042	   1.44736	   0.21758	   1.46362	  -8.54911
39389.00803	   3.00000	   0.03192	   1.47954	   0.24755	   1.50011	  -9.49845
39432.55603	   3.00000	   0.02528	   1.52401	   0.28564	   1.55055	 -10.61557
39487.62104	   3.00000	   0.01999	   1.57371	   0.33808	   1.60962	 -12.12470
54840.49550	   4.00000	20004.45300	   0.39401	  -0.02074	   0.39455	   3.01293
54840.63850	   4.00000	15829.12600	   0.40191	  -0.00417	   0.40193	   0.59507
54840.78050	   4.00000	12516.70300	   0.40822	   0.01083	   0.40836	  -1.51983
54840.92250	   4.00000	9909.44240	   0.41597	   0.02153	   0.41653	  -2.96263
54841.08650	   4.00000	7835.48000	   0.42440	   0.03232	   0.42563	  -4.35446
54841.28750	   4.00000	6217.24610	   0.43230	   0.04055	   0.43420	  -5.35810
54841.52550	   4.00000	4905.29100	   0.44124	   0.04791	   0.44383	  -6.19663
54841.76450	   4.00000	3881.27370	   0.45047	   0.05626	   0.45397	  -7.11852
54842.00250	   4.00000	3070.98270	   0.46076	   0.06197	   0.46491	  -7.65986
54842.24050	   4.00000	2430.77780	   0.47129	   0.06813	   0.47619	  -8.22610
54842.47850	   4.00000	1923.15370	   0.48302	   0.07429	   0.48870	  -8.74405
54842.71650	   4.00000	1522.43580	   0.49396	   0.07974	   0.50035	  -9.17071
54842.95450	   4.00000	1203.84460	   0.50738	   0.08676	   0.51475	  -9.70307
54843.19350	   4.00000	 952.86591	   0.51918	   0.09318	   0.52748	 -10.17530
54843.43150	   4.00000	 754.27557	   0.53466	   0.09994	   0.54392	 -10.58770
54843.66850	   4.00000	 596.71857	   0.55031	   0.10429	   0.56011	 -10.73109
54843.90650	   4.00000	 471.96338	   0.56587	   0.11209	   0.57687	 -11.20395
54844.14550	   4.00000	 373.20856	   0.58281	   0.11871	   0.59478	 -11.51328
54844.38350	   4.00000	 295.47278	   0.60091	   0.12394	   0.61355	 -11.65434
54844.62250	   4.00000	 233.87738	   0.61984	   0.12991	   0.63331	 -11.83722
54844.86050	   4.00000	 185.05922	   0.64021	   0.13543	   0.65438	 -11.94426
54845.09650	   4.00000	 146.35823	   0.65924	   0.14217	   0.67440	 -12.17019
54845.33350	   4.00000	 115.77804	   0.67915	   0.14758	   0.69500	 -12.26019
54845.56750	   4.00000	  91.67210	   0.70293	   0.15263	   0.71931	 -12.25040
54845.81250	   4.00000	  72.51701	   0.72569	   0.16095	   0.74332	 -12.50522
54846.04150	   4.00000	  57.36816	   0.74863	   0.16800	   0.76725	 -12.64831
54846.27850	   4.00000	  45.36290	   0.77154	   0.17833	   0.79188	 -13.01417
54846.51050	   4.00000	  35.93134	   0.79485	   0.18592	   0.81630	 -13.16526
54846.76150	   4.00000	  28.40909	   0.82303	   0.19843	   0.84661	 -13.55501
54846.97550	   4.00000	  22.48202	   0.85333	   0.21238	   0.87937	 -13.97610
54847.24050	   4.00000	  17.79613	   0.88829	   0.22484	   0.91630	 -14.20402
54847.49250	   4.00000	  14.06813	   0.92846	   0.24025	   0.95904	 -14.50794
54847.70850	   4.00000	  11.14480	   0.97124	   0.24897	   1.00264	 -14.37772
54847.97650	   4.00000	   8.81772	   1.02097	   0.25340	   1.05194	 -13.93904
54848.15450	   4.00000	   6.97545	   1.06927	   0.24861	   1.09779	 -13.08876
54848.37250	   4.00000	   5.51730	   1.11830	   0.24327	   1.14445	 -12.27251
54848.64150	   4.00000	   4.36941	   1.15921	   0.22459	   1.18077	 -10.96467
54848.97650	   4.00000	   3.45686	   1.20180	   0.20619	   1.21936	  -9.73543
54849.39550	   4.00000	   2.73547	   1.23224	   0.18615	   1.24622	  -8.59034
54849.92050	   4.00000	   2.16054	   1.25705	   0.16380	   1.26768	  -7.42415
54850.57950	   4.00000	   1.70952	   1.27859	   0.14298	   1.28656	  -6.38064
54851.40850	   4.00000	   1.35352	   1.29418	   0.12578	   1.30028	  -5.55087
54852.45150	   4.00000	   1.07079	   1.30633	   0.11066	   1.31101	  -4.84182
54853.76550	   4.00000	   0.84734	   1.31527	   0.09793	   1.31891	  -4.25802
54855.42050	   4.00000	   0.67072	   1.32410	   0.08996	   1.32715	  -3.88679
54857.50950	   4.00000	   0.53067	   1.33225	   0.08387	   1.33488	  -3.60238
54860.14650	   4.00000	   0.41976	   1.33819	   0.08291	   1.34075	  -3.54538
54863.47750	   4.00000	   0.33183	   1.34307	   0.08345	   1.34566	  -3.55555
54867.68351	   4.00000	   0.26261	   1.34830	   0.08496	   1.35098	  -3.60548
54872.99151	   4.00000	   0.20791	   1.35522	   0.08916	   1.35815	  -3.76405
54879.69651	   4.00000	   0.16452	   1.36322	   0.09718	   1.36668	  -4.07754
54888.17251	   4.00000	   0.13007	   1.37110	   0.10911	   1.37544	  -4.55004
54898.86251	   4.00000	   0.10309	   1.38037	   0.12281	   1.38582	  -5.08404
54912.37651	   4.00000	   0.08153	   1.39478	   0.13901	   1.40169	  -5.69167
54929.47451	   4.00000	   0.06443	   1.41436	   0.16257	   1.42367	  -6.55682
54951.06151	   4.00000	   0.05102	   1.43770	   0.19574	   1.45096	  -7.75313
54978.30351	   4.00000	   0.04042	   1.45756	   0.23508	   1.47639	  -9.16185
55012.79951	   4.00000	   0.03192	   1.47826	   0.27027	   1.50277	 -10.36093
55056.34751	   4.00000	   0.02528	   1.50943	   0.30230	   1.53941	 -11.32518
55111.41252	   4.00000	   0.01999	   1.55510	   0.34018	   1.59188	 -12.33928
70332.38650	   5.00000	20004.45300	   0.39670	  -0.01971	   0.39719	   2.84426
70332.52950	   5.00000	15829.12600	   0.40298	  -0.00164	   0.40299	   0.23315
70332.67150	   5.00000	12516.70300	   0.41048	   0.01075	   0.41062	  -1.50015
70332.81350	   5.00000	9909.44240	   0.41803	   0.02210	   0.41861	  -3.02681
70332.97750	   5.00000	7835.48000	   0.42548	   0.03231	   0.42671	  -4.34245
70333.17850	   5.00000	6217.24610	   0.43415	   0.04149	   0.43613	  -5.45876
70333.41650	   5.00000	4905.29100	   0.44157	   0.04845	   0.44422	  -6.26164
70333.65550	   5.00000	3881.27370	   0.45217	   0.05450	   0.45544	  -6.87311
70333.89350	   5.00000	3070.98270	   0.46183	   0.05978	   0.46568	  -7.37554
70334.13150	   5.00000	2430.77780	   0.47256	   0.06812	   0.47744	  -8.20248
70334.36950	   5.00000	1923.15370	   0.48293	   0.07479	   0.48869	  -8.80365
70334.60750	   5.00000	1522.43580	   0.49557	   0.08064	   0.50209	  -9.24224
70334.84550	   5.00000	1203.84460	   0.50815	   0.08680	   0.51551	  -9.69375
70335.08450	   5.00000	 952.86591	   0.52111	   0.09480	   0.52966	 -10.31099
70335.32250	   5.00000	 754.27557	   0.53517	   0.09934	   0.54432	 -10.51583
