time/s	           cycle number	freq/Hz	           Re(Z)/Ohm	  -Im(Z)/Ohm	   |Z|/Ohm	   Phase(Z)/deg
12874.40798	   1.00000	20004.45300	   0.29149	  -0.01735	   0.29200	   3.40587
12874.55098	   1.00000	15829.12600	   0.30000	   0.00320	   0.30002	  -0.61052
12874.69298	   1.00000	12516.70300	   0.30704	   0.02031	   0.30771	  -3.78500
12874.83498	   1.00000	9909.44240	   0.31713	   0.03497	   0.31905	  -6.29226
12874.99898	   1.00000	7835.48000	   0.32626	   0.04884	   0.32990	  -8.51387
12875.19998	   1.00000	6217.24610	   0.33806	   0.06096	   0.34352	 -10.22185
12875.43798	   1.00000	4905.29100	   0.34861	   0.07055	   0.35568	 -11.44073
12875.67698	   1.00000	3881.27370	   0.36348	   0.08179	   0.37257	 -12.68189
12875.91498	   1.00000	3070.98270	   0.37925	   0.09029	   0.38985	 -13.39193
12876.15298	   1.00000	2430.77780	   0.39068	   0.09997	   0.40326	 -14.35318
12876.39098	   1.00000	1923.15370	   0.40887	   0.10754	   0.42278	 -14.73577
12876.62898	   1.00000	1522.43580	   0.42655	   0.11890	   0.44281	 -15.57565
12876.86698	   1.00000	1203.84460	   0.44599	   0.12691	   0.46369	 -15.88413
12877.10598	   1.00000	 952.86591	   0.46456	   0.13547	   0.48391	 -16.25703
12877.34398	   1.00000	 754.27557	   0.48656	   0.14412	   0.50746	 -16.49917
12877.58098	   1.00000	 596.71857	   0.50686	   0.15235	   0.52927	 -16.72982
12877.81898	   1.00000	 471.96338	   0.53101	   0.16092	   0.55486	 -16.85932
12878.05798	   1.00000	 373.20856	   0.55492	   0.16911	   0.58012	 -16.94822
12878.29498	   1.00000	 295.47278	   0.58054	   0.17803	   0.60723	 -17.04907
12878.53498	   1.00000	 233.87738	   0.60743	   0.18624	   0.63534	 -17.04596
12878.77298	   1.00000	 185.05922	   0.63637	   0.19499	   0.66558	 -17.03573
12879.00898	   1.00000	 146.35823	   0.67038	   0.20410	   0.70076	 -16.93334
12879.24498	   1.00000	 115.77804	   0.69889	   0.21164	   0.73023	 -16.84732
12879.47998	   1.00000	  91.67210	   0.73141	   0.21825	   0.76327	 -16.61464
12879.72498	   1.00000	  72.51701	   0.77100	   0.22582	   0.80339	 -16.32482
12879.95398	   1.00000	  57.36816	   0.80486	   0.23715	   0.83907	 -16.41742
12880.19098	   1.00000	  45.36290	   0.84411	   0.24357	   0.87855	 -16.09582
12880.42298	   1.00000	  35.93134	   0.88224	   0.23513	   0.91304	 -14.92328
12880.67298	   1.00000	  28.40909	   0.92956	   0.24359	   0.96094	 -14.68431
12880.88798	   1.00000	  22.48202	   0.97266	   0.23867	   1.00152	 -13.78696
12881.15298	   1.00000	  17.79613	   1.00671	   0.23068	   1.03281	 -12.90620
12881.40498	   1.00000	  14.06813	   1.04119	   0.24949	   1.07066	 -13.47510
12881.62098	   1.00000	  11.14480	   1.09913	   0.20956	   1.11893	 -10.79426
12881.88798	   1.00000	   8.81772	   1.13722	   0.23645	   1.16154	 -11.74549
12882.06598	   1.00000	   6.97545	   1.14083	   0.20184	   1.15855	 -10.03300
12882.28498	   1.00000	   5.51730	   1.18866	   0.14185	   1.19710	  -6.80544
12882.55398	   1.00000	   4.36941	   1.26343	   0.13408	   1.27052	  -6.05767
12882.88898	   1.00000	   3.45686	   1.29076	   0.17222	   1.30219	  -7.59966
12883.30798	   1.00000	   2.73547	   1.25731	   0.19134	   1.27179	  -8.65296
12883.83298	   1.00000	   2.16054	   1.20444	   0.15461	   1.21432	  -7.31469
12884.49198	   1.00000	   1.70952	   1.18342	   0.06835	   1.18540	  -3.30571
12885.32098	   1.00000	   1.35352	   1.23310	  -0.02856	   1.23343	   1.32676
12886.36398	   1.00000	   1.07079	   1.34620	  -0.07646	   1.34837	   3.25083
12887.67698	   1.00000	   0.84734	   1.47997	  -0.03235	   1.48033	   1.25214
12889.33298	   1.00000	   0.67072	   1.56202	   0.08665	   1.56443	  -3.17529
12891.42198	   1.00000	   0.53067	   1.53770	   0.27199	   1.56157	 -10.03089
12894.05898	   1.00000	   0.41976	   1.37750	   0.41123	   1.43757	 -16.62231
12897.38998	   1.00000	   0.33183	   1.13613	   0.40929	   1.20761	 -19.81131
12901.59598	   1.00000	   0.26261	   0.93085	   0.22359	   0.95733	 -13.50655
12906.90398	   1.00000	   0.20791	   0.89255	  -0.09733	   0.89784	   6.22357
12913.60798	   1.00000	   0.16452	   1.10360	  -0.41878	   1.18039	  20.77998
12922.08398	   1.00000	   0.13007	   1.53077	  -0.56252	   1.63086	  20.17721
12932.77498	   1.00000	   0.10309	   2.02478	  -0.39974	   2.06387	  11.16789
12946.28898	   1.00000	   0.08153	   2.36941	   0.06661	   2.37035	  -1.61042
12963.38598	   1.00000	   0.06443	   2.43146	   0.62540	   2.51060	 -14.42443
12984.97298	   1.00000	   0.05102	   2.12312	   1.23381	   2.45559	 -30.16218
13012.21498	   1.00000	   0.04042	   1.49086	   1.58284	   2.17441	 -46.71404
13046.71099	   1.00000	   0.03192	   0.72270	   1.45011	   1.62022	 -63.50926
13090.25899	   1.00000	   0.02528	   0.24168	   0.74488	   0.78310	 -72.02434
13145.32399	   1.00000	   0.01999	   0.39162	  -0.30903	   0.49886	  38.27723
28634.85409	   2.00000	20004.45300	   0.29449	  -0.01669	   0.29496	   3.24303
28634.99709	   2.00000	15829.12600	   0.30341	   0.00433	   0.30344	  -0.81720
28635.13909	   2.00000	12516.70300	   0.31213	   0.01933	   0.31272	  -3.54401
28635.28109	   2.00000	9909.44240	   0.32009	   0.03629	   0.32214	  -6.46803
28635.44509	   2.00000	7835.48000	   0.33071	   0.05013	   0.33449	  -8.61981
28635.64609	   2.00000	6217.24610	   0.34045	   0.06056	   0.34580	 -10.08683
28635.88409	   2.00000	4905.29100	   0.35385	   0.07214	   0.36113	 -11.52237
28636.12209	   2.00000	3881.27370	   0.36764	   0.08192	   0.37666	 -12.56219
28636.36009	   2.00000	3070.98270	   0.38212	   0.09191	   0.39301	 -13.52401
28636.59909	   2.00000	2430.77780	   0.39642	   0.10218	   0.40938	 -14.45394
28636.83709	   2.00000	1923.15370	   0.41308	   0.11241	   0.42810	 -15.22262
28637.07509	   2.00000	1522.43580	   0.43143	   0.11911	   0.44757	 -15.43406
28637.31309	   2.00000	1203.84460	   0.45034	   0.12800	   0.46818	 -15.86611
28637.55209	   2.00000	 952.86591	   0.46865	   0.13639	   0.48809	 -16.22639
28637.79009	   2.00000	 754.27557	   0.49052	   0.14479	   0.51144	 -16.44578
28638.02709	   2.00000	 596.71857	   0.51199	   0.15273	   0.53428	 -16.60980
28638.26509	   2.00000	 471.96338	   0.53643	   0.16286	   0.56061	 -16.88876
28638.50409	   2.00000	 373.20856	   0.56019	   0.17095	   0.58569	 -16.97009
28638.74109	   2.00000	 295.47278	   0.58379	   0.17878	   0.61055	 -17.02615
28638.98109	   2.00000	 233.87738	   0.61234	   0.18619	   0.64002	 -16.91272
28639.21909	   2.00000	 185.05922	   0.64106	   0.19557	   0.67023	 -16.96531
28639.45509	   2.00000	 146.35823	   0.67382	   0.20533	   0.70441	 -16.94694
28639.69109	   2.00000	 115.77804	   0.70562	   0.21265	   0.73696	 -16.77105
28639.92609	   2.00000	  91.67210	   0.73931	   0.21949	   0.77120	 -16.53517
28640.17109	   2.00000	  72.51701	   0.77932	   0.23024	   0.81262	 -16.45929
28640.40009	   2.00000	  57.36816	   0.81118	   0.23899	   0.84565	 -16.41637
28640.63709	   2.00000	  45.36290	   0.85179	   0.24581	   0.88655	 -16.09684
28640.86909	   2.00000	  35.93134	   0.89543	   0.23899	   0.92677	 -14.94399
28641.11909	   2.00000	  28.40909	   0.93802	   0.25368	   0.97171	 -15.13307
28641.33409	   2.00000	  22.48202	   0.98278	   0.24950	   1.01396	 -14.24512
28641.59909	   2.00000	  17.79613	   1.02326	   0.23704	   1.05035	 -13.04280
28641.85109	   2.00000	  14.06813	   1.04836	   0.24437	   1.07647	 -13.12140
28642.06709	   2.00000	  11.14480	   1.11874	   0.22150	   1.14046	 -11.19907
28642.33409	   2.00000	   8.81772	   1.13439	   0.23914	   1.15933	 -11.90420
28642.51209	   2.00000	   6.97545	   1.15736	   0.19034	   1.17290	  -9.33913
28642.73009	   2.00000	   5.51730	   1.22622	   0.14775	   1.23509	  -6.87053
28643.00009	   2.00000	   4.36941	   1.28399	   0.16876	   1.29504	  -7.48762
28643.33509	   2.00000	   3.45686	   1.27597	   0.19631	   1.29099	  -8.74659
28643.75409	   2.00000	   2.73547	   1.23186	   0.17741	   1.24457	  -8.19546
28644.27909	   2.00000	   2.16054	   1.20715	   0.10449	   1.21167	  -4.94733
28644.93809	   2.00000	   1.70952	   1.23876	   0.01334	   1.23884	  -0.61706
28645.76609	   2.00000	   1.35352	   1.33471	  -0.04087	   1.33533	   1.75399
28646.80909	   2.00000	   1.07079	   1.45385	  -0.01590	   1.45393	   0.62669
28648.12309	   2.00000	   0.84734	   1.53132	   0.09568	   1.53430	  -3.57543
28649.77909	   2.00000	   0.67072	   1.52584	   0.23111	   1.54325	  -8.61284
28651.86709	   2.00000	   0.53067	   1.39542	   0.35911	   1.44089	 -14.43199
28654.50409	   2.00000	   0.41976	   1.18511	   0.36642	   1.24047	 -17.18097
28657.83510	   2.00000	   0.33183	   0.99944	   0.20916	   1.02109	 -11.82035
28662.04110	   2.00000	   0.26261	   0.95629	  -0.07980	   0.95962	   4.77030
28667.34910	   2.00000	   0.20791	   1.13917	  -0.37539	   1.19943	  18.23870
28674.05410	   2.00000	   0.16452	   1.52797	  -0.51689	   1.61303	  18.69007
28682.53010	   2.00000	   0.13007	   1.99612	  -0.37753	   2.03150	  10.70994
28693.22110	   2.00000	   0.10309	   2.32657	   0.05607	   2.32724	  -1.38050
28706.73410	   2.00000	   0.08153	   2.35092	   0.64598	   2.43806	 -15.36444
28723.83210	   2.00000	   0.06443	   2.09587	   1.13369	   2.38284	 -28.40962
28745.41910	   2.00000	   0.05102	   1.50001	   1.42376	   2.06812	 -43.50601
28772.66110	   2.00000	   0.04042	   0.82470	   1.28304	   1.52523	 -57.26808
28807.15710	   2.00000	   0.03192	   0.38566	   0.65891	   0.76347	 -59.65957
28850.70410	   2.00000	   0.02528	   0.54669	  -0.25784	   0.60445	  25.25049
28905.76911	   2.00000	   0.01999	   1.42236	  -1.07571	   1.78333	  37.09951
44050.09594	   3.00000	20004.45300	   0.29575	  -0.01568	   0.29616	   3.03493
44050.23894	   3.00000	15829.12600	   0.30372	   0.00343	   0.30374	  -0.64691
44050.38094	   3.00000	12516.70300	   0.31137	   0.02086	   0.31207	  -3.83363
44050.52294	   3.00000	9909.44240	   0.32040	   0.03482	   0.32229	  -6.20270
44050.68694	   3.00000	7835.48000	   0.32935	   0.04957	   0.33306	  -8.56000
44050.88794	   3.00000	6217.24610	   0.34191	   0.06221	   0.34752	 -10.31164
44051.12594	   3.00000	4905.29100	   0.35426	   0.07217	   0.36153	 -11.51418
44051.36394	   3.00000	3881.27370	   0.36723	   0.08153	   0.37617	 -12.51700
44051.60294	   3.00000	3070.98270	   0.38237	   0.09229	   0.39335	 -13.56899
44051.84094	   3.00000	2430.77780	   0.39772	   0.10041	   0.41020	 -14.16859
44052.07894	   3.00000	1923.15370	   0.41358	   0.11040	   0.42806	 -14.94609
44052.31694	   3.00000	1522.43580	   0.43264	   0.12003	   0.44898	 -15.50635
44052.55494	   3.00000	1203.84460	   0.45063	   0.12885	   0.46869	 -15.95667
44052.79394	   3.00000	 952.86591	   0.47056	   0.13625	   0.48989	 -16.14786
44053.03194	   3.00000	 754.27557	   0.49268	   0.14601	   0.51386	 -16.50802
44053.26894	   3.00000	 596.71857	   0.51445	   0.15470	   0.53720	 -16.73612
44053.50694	   3.00000	 471.96338	   0.53780	   0.16231	   0.56176	 -16.79359
44053.74594	   3.00000	 373.20856	   0.56278	   0.17077	   0.58812	 -16.88007
44053.98394	   3.00000	 295.47278	   0.58718	   0.17979	   0.61409	 -17.02405
44054.22294	   3.00000	 233.87738	   0.61433	   0.18953	   0.64290	 -17.14541
44054.46094	   3.00000	 185.05922	   0.64177	   0.19559	   0.67092	 -16.94922
44054.69694	   3.00000	 146.35823	   0.67560	   0.20503	   0.70603	 -16.88147
44054.93294	   3.00000	 115.77804	   0.70675	   0.21316	   0.73820	 -16.78388
44055.16794	   3.00000	  91.67210	   0.73965	   0.22109	   0.77199	 -16.64226
44055.41294	   3.00000	  72.51701	   0.77852	   0.22966	   0.81168	 -16.43590
44055.64194	   3.00000	  57.36816	   0.81374	   0.23923	   0.84818	 -16.38253
44055.87894	   3.00000	  45.36290	   0.85261	   0.24610	   0.88742	 -16.10041
44056.11094	   3.00000	  35.93134	   0.89439	   0.24037	   0.92613	 -15.04300
44056.36194	   3.00000	  28.40909	   0.94089	   0.25033	   0.97362	 -14.89893
44056.57594	   3.00000	  22.48202	   0.98550	   0.24434	   1.01534	 -13.92466
44056.84094	   3.00000	  17.79613	   1.02102	   0.23560	   1.04785	 -12.99334
44057.09294	   3.00000	  14.06813	   1.05198	   0.25162	   1.08165	 -13.45151
44057.30894	   3.00000	  11.14480	   1.11540	   0.21729	   1.13637	 -11.02388
44057.57694	   3.00000	   8.81772	   1.14646	   0.24358	   1.17205	 -11.99497
44057.75494	   3.00000	   6.97545	   1.15699	   0.20233	   1.17455	  -9.91948
44057.97294	   3.00000	   5.51730	   1.21247	   0.14615	   1.22124	  -6.87329
44058.24194	   3.00000	   4.36941	   1.28727	   0.15006	   1.29599	  -6.64929
44058.57694	   3.00000	   3.45686	   1.30151	   0.18710	   1.31489	  -8.18038
44058.99594	   3.00000	   2.73547	   1.26075	   0.19446	   1.27566	  -8.76810
44059.52094	   3.00000	   2.16054	   1.21364	   0.14191	   1.22191	  -6.66944
44060.17994	   3.00000	   1.70952	   1.21249	   0.04755	   1.21342	  -2.24594
44061.00894	   3.00000	   1.35352	   1.28415	  -0.04027	   1.28478	   1.79617
44062.05194	   3.00000	   1.07079	   1.40993	  -0.06314	   1.41134	   2.56430
44063.36594	   3.00000	   0.84734	   1.53168	   0.01223	   1.53173	  -0.45764
44065.02094	   3.00000	   0.67072	   1.58562	   0.14906	   1.59261	  -5.37028
44067.10994	   3.00000	   0.53067	   1.51586	   0.32779	   1.55090	 -12.20178
44069.74694	   3.00000	   0.41976	   1.32081	   0.42645	   1.38794	 -17.89373
44073.07794	   3.00000	   0.33183	   1.07719	   0.35887	   1.13540	 -18.42585
44077.28394	   3.00000	   0.26261	   0.91939	   0.11042	   0.92600	  -6.84832
44082.59194	   3.00000	   0.20791	   0.97076	  -0.23328	   0.99839	  13.51245
44089.29594	   3.00000	   0.16452	   1.28022	  -0.51314	   1.37923	  21.84191
44097.77294	   3.00000	   0.13007	   1.77808	  -0.55081	   1.86144	  17.21188
44108.46294	   3.00000	   0.10309	   2.25764	  -0.25065	   2.27151	   6.33528
44121.97694	   3.00000	   0.08153	   2.50323	   0.32481	   2.52421	  -7.39310
44139.07494	   3.00000	   0.06443	   2.43801	   0.91911	   2.60551	 -20.65611
44160.66094	   3.00000	   0.05102	   1.97580	   1.46431	   2.45927	 -36.54303
44187.90394	   3.00000	   0.04042	   1.25081	   1.64326	   2.06515	 -52.72254
44222.39894	   3.00000	   0.03192	   0.56835	   1.26883	   1.39031	 -65.87086
44265.94695	   3.00000	   0.02528	   0.34184	   0.39763	   0.52437	 -49.31456
44321.01195	   3.00000	   0.01999	   0.80858	  -0.65265	   1.03911	  38.90927
59267.10341	   4.00000	20004.45300	   0.29597	  -0.01679	   0.29645	   3.24710
59267.24641	   4.00000	15829.12600	   0.30511	   0.00403	   0.30514	  -0.75721
59267.38841	   4.00000	12516.70300	   0.31287	   0.01986	   0.31350	  -3.63235
59267.53041	   4.00000	9909.44240	   0.32035	   0.03478	   0.32224	  -6.19614
59267.69441	   4.00000	7835.48000	   0.33138	   0.04994	   0.33512	  -8.56992
59267.89541	   4.00000	6217.24610	   0.34260	   0.06143	   0.34806	 -10.16485
59268.13341	   4.00000	4905.29100	   0.35508	   0.07271	   0.36245	 -11.57319
59268.37141	   4.00000	3881.27370	   0.36809	   0.08313	   0.37736	 -12.72685
59268.60941	   4.00000	3070.98270	   0.38225	   0.09228	   0.39323	 -13.57188
59268.84741	   4.00000	2430.77780	   0.39791	   0.10073	   0.41047	 -14.20639
59269.08641	   4.00000	1923.15370	   0.41624	   0.11059	   0.43068	 -14.87858
59269.32341	   4.00000	1522.43580	   0.43271	   0.12021	   0.44909	 -15.52551
59269.56241	   4.00000	1203.84460	   0.45098	   0.12826	   0.46886	 -15.87573
59269.80041	   4.00000	 952.86591	   0.47125	   0.13735	   0.49085	 -16.24914
59270.03941	   4.00000	 754.27557	   0.49187	   0.14522	   0.51286	 -16.44902
59270.27641	   4.00000	 596.71857	   0.51562	   0.15324	   0.53791	 -16.55168
59270.51341	   4.00000	 471.96338	   0.53813	   0.16413	   0.56260	 -16.96144
59270.75341	   4.00000	 373.20856	   0.56325	   0.17251	   0.58907	 -17.02819
59270.99041	   4.00000	 295.47278	   0.58901	   0.17899	   0.61560	 -16.90342
59271.22941	   4.00000	 233.87738	   0.61549	   0.18825	   0.64363	 -17.00638
59271.46841	   4.00000	 185.05922	   0.64399	   0.19770	   0.67365	 -17.06592
59271.70441	   4.00000	 146.35823	   0.67623	   0.20763	   0.70739	 -17.06828
59271.94041	   4.00000	 115.77804	   0.70859	   0.21537	   0.74059	 -16.90613
59272.17541	   4.00000	  91.67210	   0.74395	   0.22220	   0.77642	 -16.62949
59272.42041	   4.00000	  72.51701	   0.77952	   0.23137	   0.81313	 -16.53172
59272.64941	   4.00000	  57.36816	   0.80990	   0.23518	   0.84335	 -16.19240
59272.88641	   4.00000	  45.36290	   0.84849	   0.24347	   0.88273	 -16.01040
59273.11841	   4.00000	  35.93134	   0.90032	   0.24443	   0.93291	 -15.18939
59273.36841	   4.00000	  28.40909	   0.93373	   0.25543	   0.96804	 -15.29965
59273.58341	   4.00000	  22.48202	   0.98344	   0.25691	   1.01645	 -14.64036
59273.84841	   4.00000	  17.79613	   1.03181	   0.24552	   1.06062	 -13.38465
59274.10041	   4.00000	  14.06813	   1.05122	   0.23579	   1.07734	 -12.64218
59274.31641	   4.00000	  11.14480	   1.12668	   0.23779	   1.15150	 -11.91782
59274.58341	   4.00000	   8.81772	   1.12707	   0.22982	   1.15026	 -11.52529
59274.76241	   4.00000	   6.97545	   1.17410	   0.17838	   1.18758	  -8.63905
59274.98041	   4.00000	   5.51730	   1.25149	   0.16595	   1.26245	  -7.55352
59275.24941	   4.00000	   4.36941	   1.27487	   0.20087	   1.29060	  -8.95416
59275.58441	   4.00000	   3.45686	   1.24257	   0.19652	   1.25801	  -8.98732
59276.00341	   4.00000	   2.73547	   1.21362	   0.13641	   1.22126	  -6.41296
59276.52841	   4.00000	   2.16054	   1.23650	   0.04917	   1.23748	  -2.27708
59277.18741	   4.00000	   1.70952	   1.32044	  -0.01012	   1.32048	   0.43925
59278.01641	   4.00000	   1.35352	   1.42937	   0.00343	   1.42938	  -0.13731
59279.05841	   4.00000	   1.07079	   1.50125	   0.09810	   1.50445	  -3.73883
59280.37241	   4.00000	   0.84734	   1.48199	   0.22883	   1.49955	  -8.77775
59282.02841	   4.00000	   0.67072	   1.38171	   0.32303	   1.41897	 -13.15902
59284.11741	   4.00000	   0.53067	   1.19531	   0.32064	   1.23757	 -15.01616
59286.75341	   4.00000	   0.41976	   1.03438	   0.17075	   1.04838	  -9.37339
59290.08541	   4.00000	   0.33183	   1.00970	  -0.09023	   1.01373	   5.10649
59294.29041	   4.00000	   0.26261	   1.18912	  -0.35416	   1.24074	  16.58514
59299.59842	   4.00000	   0.20791	   1.55795	  -0.46965	   1.62720	  16.77564
59306.30342	   4.00000	   0.16452	   1.98549	  -0.31485	   2.01030	   9.01060
59314.77942	   4.00000	   0.13007	   2.27794	   0.10968	   2.28058	  -2.75651
59325.47042	   4.00000	   0.10309	   2.26092	   0.66574	   2.35690	 -16.40732
59338.98342	   4.00000	   0.08153	   1.90647	   1.12055	   2.21140	 -30.44544
59356.08142	   4.00000	   0.06443	   1.42591	   1.29675	   1.92738	 -42.28399
59377.66842	   4.00000	   0.05102	   0.84496	   1.09229	   1.38096	 -52.27569
59404.91042	   4.00000	   0.04042	   0.50813	   0.50043	   0.71318	 -44.56296
59439.40642	   4.00000	   0.03192	   0.70075	  -0.32082	   0.77070	  24.59926
59482.95342	   4.00000	   0.02528	   1.56408	  -0.97514	   1.84317	  31.94187
59538.01943	   4.00000	   0.01999	   2.91510	  -1.08125	   3.10917	  20.35053
74353.28391	   5.00000	20004.45300	   0.29588	  -0.01596	   0.29631	   3.08776
74353.42691	   5.00000	15829.12600	   0.30506	   0.00384	   0.30509	  -0.72064
74353.56891	   5.00000	12516.70300	   0.31285	   0.02064	   0.31353	  -3.77463
74353.71091	   5.00000	9909.44240	   0.32169	   0.03444	   0.32353	  -6.11038
74353.87491	   5.00000	7835.48000	   0.33274	   0.04850	   0.33625	  -8.29349
74354.07591	   5.00000	6217.24610	   0.34313	   0.06125	   0.34855	 -10.12161
74354.31391	   5.00000	4905.29100	   0.35408	   0.07177	   0.36128	 -11.45825
74354.55291	   5.00000	3881.27370	   0.36852	   0.08211	   0.37755	 -12.56085
74354.79091	   5.00000	3070.98270	   0.38313	   0.09200	   0.39402	 -13.50330
74355.02891	   5.00000	2430.77780	   0.39880	   0.10102	   0.41140	 -14.21408
74355.26691	   5.00000	1923.15370	   0.41491	   0.11150	   0.42963	 -15.04210
74355.50491	   5.00000	1522.43580	   0.43221	   0.11866	   0.44820	 -15.35138
74355.74291	   5.00000	1203.84460	   0.45036	   0.12921	   0.46853	 -16.00804
74355.98191	   5.00000	 952.86591	   0.47053	   0.13748	   0.49021	 -16.28689
