time/s	           cycle number	freq/Hz	           Re(Z)/Ohm	  -Im(Z)/Ohm	   |Z|/Ohm	   Phase(Z)/deg
15747.40125	   1.00000	20004.45300	   0.40511	  -0.02774	   0.40606	   3.91746
15747.54425	   1.00000	15829.12600	   0.41137	  -0.01052	   0.41151	   1.46475
15747.68625	   1.00000	12516.70300	   0.41745	   0.00433	   0.41748	  -0.59362
15747.82825	   1.00000	9909.44240	   0.42497	   0.01694	   0.42530	  -2.28268
15747.99225	   1.00000	7835.48000	   0.43232	   0.02861	   0.43327	  -3.78569
15748.19325	   1.00000	6217.24610	   0.44111	   0.03866	   0.44280	  -5.00831
15748.43125	   1.00000	4905.29100	   0.44968	   0.04522	   0.45195	  -5.74275
15748.67025	   1.00000	3881.27370	   0.45798	   0.05462	   0.46122	  -6.80074
15748.90825	   1.00000	3070.98270	   0.46849	   0.06133	   0.47249	  -7.45771
15749.14625	   1.00000	2430.77780	   0.47826	   0.06900	   0.48322	  -8.20949
15749.38425	   1.00000	1923.15370	   0.49138	   0.07635	   0.49728	  -8.83202
15749.62225	   1.00000	1522.43580	   0.50257	   0.08319	   0.50941	  -9.39844
15749.86025	   1.00000	1203.84460	   0.51665	   0.08988	   0.52441	  -9.86886
15750.09925	   1.00000	 952.86591	   0.52948	   0.09671	   0.53824	 -10.35127
15750.33725	   1.00000	 754.27557	   0.54554	   0.10412	   0.55538	 -10.80489
15750.57425	   1.00000	 596.71857	   0.56057	   0.11107	   0.57147	 -11.20749
15750.81225	   1.00000	 471.96338	   0.57763	   0.11803	   0.58957	 -11.54833
15751.05125	   1.00000	 373.20856	   0.59574	   0.12492	   0.60869	 -11.84284
15751.28925	   1.00000	 295.47278	   0.61366	   0.13208	   0.62772	 -12.14666
15751.52825	   1.00000	 233.87738	   0.63367	   0.13908	   0.64875	 -12.37922
15751.76625	   1.00000	 185.05922	   0.65602	   0.14722	   0.67233	 -12.64837
15752.00225	   1.00000	 146.35823	   0.67911	   0.15405	   0.69637	 -12.78087
15752.23925	   1.00000	 115.77804	   0.70185	   0.16080	   0.72003	 -12.90391
15752.47325	   1.00000	  91.67210	   0.72719	   0.16766	   0.74627	 -12.98351
15752.71825	   1.00000	  72.51701	   0.75010	   0.17452	   0.77013	 -13.09762
15752.94725	   1.00000	  57.36816	   0.77705	   0.18080	   0.79781	 -13.09850
15753.18425	   1.00000	  45.36290	   0.80314	   0.18917	   0.82512	 -13.25360
15753.41625	   1.00000	  35.93134	   0.82970	   0.19736	   0.85285	 -13.38029
15753.66725	   1.00000	  28.40909	   0.85908	   0.20963	   0.88429	 -13.71298
15753.88125	   1.00000	  22.48202	   0.89331	   0.22184	   0.92044	 -13.94650
15754.14625	   1.00000	  17.79613	   0.92851	   0.23330	   0.95737	 -14.10446
15754.39825	   1.00000	  14.06813	   0.97202	   0.24497	   1.00242	 -14.14507
15754.61425	   1.00000	  11.14480	   1.01797	   0.25226	   1.04876	 -13.91770
15754.88225	   1.00000	   8.81772	   1.06595	   0.25173	   1.09527	 -13.28748
15755.06025	   1.00000	   6.97545	   1.11418	   0.24708	   1.14125	 -12.50340
15755.27825	   1.00000	   5.51730	   1.16270	   0.23389	   1.18599	 -11.37409
15755.54725	   1.00000	   4.36941	   1.19966	   0.21570	   1.21889	 -10.19311
15755.88225	   1.00000	   3.45686	   1.23755	   0.19349	   1.25259	  -8.88608
15756.30125	   1.00000	   2.73547	   1.26615	   0.17372	   1.27801	  -7.81244
15756.82625	   1.00000	   2.16054	   1.28756	   0.15152	   1.29645	  -6.71166
15757.48525	   1.00000	   1.70952	   1.30634	   0.13153	   1.31294	  -5.74939
15758.31425	   1.00000	   1.35352	   1.31953	   0.11531	   1.32456	  -4.99408
15759.35725	   1.00000	   1.07079	   1.33013	   0.10195	   1.33403	  -4.38310
15760.67125	   1.00000	   0.84734	   1.33801	   0.09070	   1.34108	  -3.87788
15762.32625	   1.00000	   0.67072	   1.34512	   0.08345	   1.34771	  -3.55006
15764.41525	   1.00000	   0.53067	   1.35182	   0.07737	   1.35403	  -3.27581
15767.05225	   1.00000	   0.41976	   1.35787	   0.07623	   1.36000	  -3.21335
15770.38325	   1.00000	   0.33183	   1.36322	   0.07637	   1.36536	  -3.20664
15774.58925	   1.00000	   0.26261	   1.36787	   0.07876	   1.37013	  -3.29519
15779.89725	   1.00000	   0.20791	   1.37507	   0.08283	   1.37756	  -3.44707
15786.60225	   1.00000	   0.16452	   1.38334	   0.09054	   1.38630	  -3.74471
15795.07825	   1.00000	   0.13007	   1.39212	   0.10339	   1.39595	  -4.24756
15805.76825	   1.00000	   0.10309	   1.39926	   0.11850	   1.40427	  -4.84071
15819.28225	   1.00000	   0.08153	   1.40833	   0.13488	   1.41477	  -5.47058
15836.38025	   1.00000	   0.06443	   1.42273	   0.15522	   1.43117	  -6.22649
15857.96625	   1.00000	   0.05102	   1.44364	   0.18114	   1.45496	  -7.15182
15885.20925	   1.00000	   0.04042	   1.46621	   0.21622	   1.48207	  -8.38902
15919.70526	   1.00000	   0.03192	   1.48895	   0.25196	   1.51011	  -9.60452
15963.25226	   1.00000	   0.02528	   1.52001	   0.28312	   1.54615	 -10.55096
16018.31726	   1.00000	   0.01999	   1.56829	   0.31814	   1.60024	 -11.46722
31750.86636	   2.00000	20004.45300	   0.40732	  -0.02902	   0.40835	   4.07490
31751.00936	   2.00000	15829.12600	   0.41364	  -0.01023	   0.41377	   1.41701
31751.15136	   2.00000	12516.70300	   0.42088	   0.00465	   0.42091	  -0.63237
31751.29336	   2.00000	9909.44240	   0.42819	   0.01920	   0.42862	  -2.56805
31751.45736	   2.00000	7835.48000	   0.43531	   0.02838	   0.43623	  -3.73036
31751.65836	   2.00000	6217.24610	   0.44372	   0.03858	   0.44539	  -4.96898
31751.89636	   2.00000	4905.29100	   0.45257	   0.04752	   0.45506	  -5.99399
31752.13436	   2.00000	3881.27370	   0.46261	   0.05475	   0.46584	  -6.74925
31752.37236	   2.00000	3070.98270	   0.47118	   0.06421	   0.47553	  -7.76000
31752.61136	   2.00000	2430.77780	   0.48212	   0.07056	   0.48726	  -8.32603
31752.84936	   2.00000	1923.15370	   0.49406	   0.07672	   0.49998	  -8.82614
31753.08736	   2.00000	1522.43580	   0.50700	   0.08290	   0.51373	  -9.28633
31753.32536	   2.00000	1203.84460	   0.51967	   0.09107	   0.52759	  -9.93956
31753.56336	   2.00000	 952.86591	   0.53393	   0.09762	   0.54278	 -10.36145
31753.80236	   2.00000	 754.27557	   0.54813	   0.10393	   0.55790	 -10.73622
31754.03936	   2.00000	 596.71857	   0.56524	   0.11040	   0.57592	 -11.05119
31754.27736	   2.00000	 471.96338	   0.58107	   0.11946	   0.59323	 -11.61694
31754.51636	   2.00000	 373.20856	   0.59975	   0.12603	   0.61285	 -11.86716
31754.75436	   2.00000	 295.47278	   0.61886	   0.13122	   0.63262	 -11.97137
31754.99336	   2.00000	 233.87738	   0.64032	   0.14017	   0.65548	 -12.34737
31755.23136	   2.00000	 185.05922	   0.66062	   0.14721	   0.67682	 -12.56239
31755.46736	   2.00000	 146.35823	   0.68317	   0.15494	   0.70052	 -12.77840
31755.70336	   2.00000	 115.77804	   0.70651	   0.16068	   0.72455	 -12.81264
31755.93836	   2.00000	  91.67210	   0.73117	   0.16869	   0.75038	 -12.99153
31756.18336	   2.00000	  72.51701	   0.75739	   0.17541	   0.77744	 -13.03958
31756.41236	   2.00000	  57.36816	   0.78177	   0.18214	   0.80271	 -13.11495
31756.64936	   2.00000	  45.36290	   0.80939	   0.18975	   0.83133	 -13.19416
31756.88136	   2.00000	  35.93134	   0.83514	   0.19886	   0.85848	 -13.39341
31757.13136	   2.00000	  28.40909	   0.86466	   0.21044	   0.88990	 -13.67864
31757.34636	   2.00000	  22.48202	   0.89843	   0.22133	   0.92529	 -13.83904
31757.61136	   2.00000	  17.79613	   0.93431	   0.23380	   0.96312	 -14.04916
31757.86336	   2.00000	  14.06813	   0.97873	   0.24340	   1.00854	 -13.96570
31758.07836	   2.00000	  11.14480	   1.02448	   0.24725	   1.05390	 -13.56866
31758.34536	   2.00000	   8.81772	   1.07208	   0.24885	   1.10058	 -13.06802
31758.52436	   2.00000	   6.97545	   1.11769	   0.24302	   1.14380	 -12.26685
31758.74236	   2.00000	   5.51730	   1.16610	   0.22624	   1.18785	 -10.97962
31759.01136	   2.00000	   4.36941	   1.20262	   0.21109	   1.22100	  -9.95567
31759.34636	   2.00000	   3.45686	   1.23729	   0.18846	   1.25156	  -8.66059
31759.76536	   2.00000	   2.73547	   1.26621	   0.16720	   1.27720	  -7.52211
31760.29036	   2.00000	   2.16054	   1.28781	   0.14684	   1.29616	  -6.50513
31760.94936	   2.00000	   1.70952	   1.30346	   0.12802	   1.30973	  -5.60953
31761.77836	   2.00000	   1.35352	   1.31591	   0.11122	   1.32060	  -4.83125
31762.82136	   2.00000	   1.07079	   1.32661	   0.09821	   1.33024	  -4.23382
31764.13536	   2.00000	   0.84734	   1.33474	   0.08894	   1.33770	  -3.81208
31765.79036	   2.00000	   0.67072	   1.34108	   0.08163	   1.34356	  -3.48311
31767.87936	   2.00000	   0.53067	   1.34704	   0.07562	   1.34916	  -3.21299
31770.51636	   2.00000	   0.41976	   1.35351	   0.07354	   1.35550	  -3.10988
31773.84736	   2.00000	   0.33183	   1.35923	   0.07519	   1.36131	  -3.16635
31778.05336	   2.00000	   0.26261	   1.36437	   0.07886	   1.36665	  -3.30783
31783.36137	   2.00000	   0.20791	   1.36984	   0.08336	   1.37238	  -3.48233
31790.06637	   2.00000	   0.16452	   1.37727	   0.09002	   1.38021	  -3.73945
31798.54237	   2.00000	   0.13007	   1.38697	   0.10086	   1.39063	  -4.15912
31809.23237	   2.00000	   0.10309	   1.39664	   0.11765	   1.40158	  -4.81500
31822.74637	   2.00000	   0.08153	   1.40555	   0.13674	   1.41218	  -5.55668
31839.84437	   2.00000	   0.06443	   1.41797	   0.15867	   1.42682	  -6.38465
31861.43037	   2.00000	   0.05102	   1.43655	   0.18062	   1.44786	  -7.16612
31888.67337	   2.00000	   0.04042	   1.46317	   0.21299	   1.47860	  -8.28227
31923.16937	   2.00000	   0.03192	   1.49097	   0.25426	   1.51249	  -9.67759
31966.71637	   2.00000	   0.02528	   1.51892	   0.29430	   1.54717	 -10.96553
32021.78138	   2.00000	   0.01999	   1.55862	   0.32909	   1.59299	 -11.92243
47577.38703	   3.00000	20004.45300	   0.40878	  -0.02789	   0.40973	   3.90303
47577.52903	   3.00000	15829.12600	   0.41482	  -0.00913	   0.41492	   1.26113
47577.67103	   3.00000	12516.70300	   0.42180	   0.00507	   0.42183	  -0.68883
47577.81303	   3.00000	9909.44240	   0.42966	   0.01690	   0.42999	  -2.25225
47577.97703	   3.00000	7835.48000	   0.43772	   0.02877	   0.43866	  -3.76047
47578.17803	   3.00000	6217.24610	   0.44568	   0.03801	   0.44729	  -4.87536
47578.41603	   3.00000	4905.29100	   0.45458	   0.04753	   0.45706	  -5.96928
47578.65503	   3.00000	3881.27370	   0.46385	   0.05419	   0.46701	  -6.66334
47578.89303	   3.00000	3070.98270	   0.47388	   0.06209	   0.47793	  -7.46409
47579.13103	   3.00000	2430.77780	   0.48474	   0.06888	   0.48961	  -8.08698
47579.36903	   3.00000	1923.15370	   0.49601	   0.07613	   0.50182	  -8.72644
47579.60703	   3.00000	1522.43580	   0.50613	   0.08346	   0.51297	  -9.36347
47579.84503	   3.00000	1203.84460	   0.52161	   0.09055	   0.52941	  -9.84793
47580.08403	   3.00000	 952.86591	   0.53672	   0.09672	   0.54536	 -10.21531
47580.32203	   3.00000	 754.27557	   0.54937	   0.10528	   0.55937	 -10.84846
47580.55903	   3.00000	 596.71857	   0.56840	   0.11084	   0.57910	 -11.03414
47580.79703	   3.00000	 471.96338	   0.58318	   0.11846	   0.59509	 -11.48209
47581.03603	   3.00000	 373.20856	   0.60062	   0.12442	   0.61337	 -11.70382
47581.27403	   3.00000	 295.47278	   0.62026	   0.13322	   0.63440	 -12.12175
47581.51303	   3.00000	 233.87738	   0.64007	   0.14006	   0.65521	 -12.34260
47581.75103	   3.00000	 185.05922	   0.66312	   0.14742	   0.67931	 -12.53371
47581.98703	   3.00000	 146.35823	   0.68508	   0.15425	   0.70223	 -12.68892
47582.22303	   3.00000	 115.77804	   0.70954	   0.16271	   0.72796	 -12.91579
47582.45803	   3.00000	  91.67210	   0.73179	   0.16718	   0.75064	 -12.86895
47582.70303	   3.00000	  72.51701	   0.75687	   0.17621	   0.77711	 -13.10569
47582.93203	   3.00000	  57.36816	   0.78456	   0.18372	   0.80579	 -13.17922
47583.16903	   3.00000	  45.36290	   0.81135	   0.18989	   0.83328	 -13.17258
47583.40103	   3.00000	  35.93134	   0.83810	   0.20057	   0.86176	 -13.45873
47583.65203	   3.00000	  28.40909	   0.86836	   0.21044	   0.89350	 -13.62248
47583.86603	   3.00000	  22.48202	   0.90004	   0.22385	   0.92746	 -13.96651
47584.13103	   3.00000	  17.79613	   0.93907	   0.23353	   0.96767	 -13.96501
47584.38303	   3.00000	  14.06813	   0.98019	   0.24488	   1.01032	 -14.02702
47584.59903	   3.00000	  11.14480	   1.02682	   0.24890	   1.05656	 -13.62560
47584.86703	   3.00000	   8.81772	   1.07558	   0.24793	   1.10378	 -12.98030
47585.04503	   3.00000	   6.97545	   1.12226	   0.23667	   1.14694	 -11.90845
47585.26303	   3.00000	   5.51730	   1.16817	   0.22724	   1.19007	 -11.00803
47585.53203	   3.00000	   4.36941	   1.20411	   0.20729	   1.22182	  -9.76793
47585.86703	   3.00000	   3.45686	   1.23826	   0.18716	   1.25233	  -8.59494
47586.28603	   3.00000	   2.73547	   1.26400	   0.16547	   1.27478	  -7.45837
47586.81103	   3.00000	   2.16054	   1.28522	   0.14384	   1.29324	  -6.38584
47587.47003	   3.00000	   1.70952	   1.30267	   0.12475	   1.30863	  -5.47006
47588.29903	   3.00000	   1.35352	   1.31444	   0.10935	   1.31898	  -4.75569
47589.34203	   3.00000	   1.07079	   1.32402	   0.09758	   1.32761	  -4.21495
47590.65603	   3.00000	   0.84734	   1.33177	   0.08759	   1.33464	  -3.76299
47592.31103	   3.00000	   0.67072	   1.33843	   0.08010	   1.34082	  -3.42490
47594.40003	   3.00000	   0.53067	   1.34448	   0.07537	   1.34659	  -3.20878
47597.03703	   3.00000	   0.41976	   1.35014	   0.07378	   1.35216	  -3.12792
47600.36803	   3.00000	   0.33183	   1.35520	   0.07468	   1.35726	  -3.15422
47604.57403	   3.00000	   0.26261	   1.36046	   0.07735	   1.36265	  -3.25414
47609.88203	   3.00000	   0.20791	   1.36709	   0.08216	   1.36956	  -3.43929
47616.58703	   3.00000	   0.16452	   1.37505	   0.09169	   1.37811	  -3.81480
47625.06303	   3.00000	   0.13007	   1.38291	   0.10482	   1.38688	  -4.33463
47635.75304	   3.00000	   0.10309	   1.39029	   0.11927	   1.39539	  -4.90334
47649.26704	   3.00000	   0.08153	   1.40073	   0.13517	   1.40724	  -5.51184
47666.36504	   3.00000	   0.06443	   1.41640	   0.15571	   1.42493	  -6.27347
47687.95104	   3.00000	   0.05102	   1.43832	   0.18342	   1.44996	  -7.26729
47715.19404	   3.00000	   0.04042	   1.45737	   0.21743	   1.47350	  -8.48574
47749.69004	   3.00000	   0.03192	   1.47998	   0.25194	   1.50127	  -9.66110
47793.23704	   3.00000	   0.02528	   1.51618	   0.28769	   1.54323	 -10.74383
47848.30205	   3.00000	   0.01999	   1.56520	   0.33351	   1.60033	 -12.02860
63277.03851	   4.00000	20004.45300	   0.40772	  -0.02702	   0.40862	   3.79078
63277.18151	   4.00000	15829.12600	   0.41432	  -0.00904	   0.41442	   1.24939
63277.32351	   4.00000	12516.70300	   0.42317	   0.00546	   0.42321	  -0.73927
63277.46551	   4.00000	9909.44240	   0.42946	   0.01835	   0.42985	  -2.44699
63277.62951	   4.00000	7835.48000	   0.43645	   0.02920	   0.43743	  -3.82786
63277.83051	   4.00000	6217.24610	   0.44517	   0.03834	   0.44682	  -4.92277
63278.06851	   4.00000	4905.29100	   0.45502	   0.04602	   0.45734	  -5.77532
63278.30651	   4.00000	3881.27370	   0.46435	   0.05592	   0.46771	  -6.86631
63278.54451	   4.00000	3070.98270	   0.47396	   0.06127	   0.47791	  -7.36542
63278.78251	   4.00000	2430.77780	   0.48399	   0.06984	   0.48901	  -8.21058
63279.02151	   4.00000	1923.15370	   0.49621	   0.07421	   0.50172	  -8.50609
63279.25951	   4.00000	1522.43580	   0.50892	   0.08434	   0.51586	  -9.40967
63279.49751	   4.00000	1203.84460	   0.52156	   0.09054	   0.52936	  -9.84788
63279.73551	   4.00000	 952.86591	   0.53448	   0.09817	   0.54342	 -10.40804
63279.97451	   4.00000	 754.27557	   0.55086	   0.10414	   0.56062	 -10.70533
63280.21151	   4.00000	 596.71857	   0.56782	   0.11295	   0.57894	 -11.25014
63280.44951	   4.00000	 471.96338	   0.58336	   0.11800	   0.59517	 -11.43510
63280.68851	   4.00000	 373.20856	   0.60357	   0.12619	   0.61662	 -11.80906
63280.92551	   4.00000	 295.47278	   0.62272	   0.13301	   0.63676	 -12.05719
63281.16551	   4.00000	 233.87738	   0.64203	   0.14103	   0.65734	 -12.38913
63281.40351	   4.00000	 185.05922	   0.66469	   0.14765	   0.68089	 -12.52391
63281.63951	   4.00000	 146.35823	   0.68692	   0.15545	   0.70428	 -12.75104
63281.87551	   4.00000	 115.77804	   0.71062	   0.16079	   0.72859	 -12.74949
63282.11051	   4.00000	  91.67210	   0.73488	   0.16853	   0.75395	 -12.91642
63282.35551	   4.00000	  72.51701	   0.75955	   0.17518	   0.77949	 -12.98705
63282.58451	   4.00000	  57.36816	   0.78690	   0.18217	   0.80771	 -13.03449
63282.82151	   4.00000	  45.36290	   0.81159	   0.19135	   0.83384	 -13.26656
63283.05351	   4.00000	  35.93134	   0.83834	   0.20075	   0.86204	 -13.46676
63283.30351	   4.00000	  28.40909	   0.86901	   0.21161	   0.89440	 -13.68570
63283.51851	   4.00000	  22.48202	   0.90287	   0.22110	   0.92955	 -13.75988
63283.78351	   4.00000	  17.79613	   0.93945	   0.23270	   0.96784	 -13.91193
63284.03551	   4.00000	  14.06813	   0.98239	   0.24322	   1.01205	 -13.90550
63284.25151	   4.00000	  11.14480	   1.02679	   0.24675	   1.05602	 -13.51271
63284.51851	   4.00000	   8.81772	   1.07408	   0.24433	   1.10152	 -12.81573
63284.69751	   4.00000	   6.97545	   1.12229	   0.23945	   1.14755	 -12.04409
63284.91551	   4.00000	   5.51730	   1.16671	   0.22185	   1.18762	 -10.76630
63285.18451	   4.00000	   4.36941	   1.20356	   0.20747	   1.22131	  -9.78040
63285.51951	   4.00000	   3.45686	   1.23642	   0.18261	   1.24983	  -8.40139
63285.93851	   4.00000	   2.73547	   1.26357	   0.16249	   1.27397	  -7.32787
63286.46351	   4.00000	   2.16054	   1.28411	   0.14208	   1.29195	  -6.31389
63287.12251	   4.00000	   1.70952	   1.29931	   0.12407	   1.30522	  -5.45473
63287.95151	   4.00000	   1.35352	   1.31183	   0.10845	   1.31631	  -4.72594
63288.99451	   4.00000	   1.07079	   1.32187	   0.09585	   1.32534	  -4.14725
63290.30851	   4.00000	   0.84734	   1.32935	   0.08633	   1.33215	  -3.71578
63291.96351	   4.00000	   0.67072	   1.33577	   0.07935	   1.33812	  -3.39956
63294.05251	   4.00000	   0.53067	   1.34163	   0.07441	   1.34370	  -3.17450
63296.68951	   4.00000	   0.41976	   1.34802	   0.07293	   1.34999	  -3.09697
63300.02051	   4.00000	   0.33183	   1.35368	   0.07451	   1.35573	  -3.15040
63304.22651	   4.00000	   0.26261	   1.35892	   0.07847	   1.36118	  -3.30467
63309.53451	   4.00000	   0.20791	   1.36382	   0.08387	   1.36640	  -3.51908
63316.23951	   4.00000	   0.16452	   1.37096	   0.09105	   1.37398	  -3.79958
63324.71551	   4.00000	   0.13007	   1.38034	   0.10208	   1.38411	  -4.22942
63335.40552	   4.00000	   0.10309	   1.39016	   0.11854	   1.39520	  -4.87393
63348.91952	   4.00000	   0.08153	   1.39975	   0.13755	   1.40649	  -5.61247
63366.01752	   4.00000	   0.06443	   1.41211	   0.16070	   1.42122	  -6.49229
63387.60352	   4.00000	   0.05102	   1.43215	   0.18341	   1.44384	  -7.29801
63414.84652	   4.00000	   0.04042	   1.45956	   0.21722	   1.47563	  -8.46487
63449.34252	   4.00000	   0.03192	   1.48762	   0.26012	   1.51019	  -9.91821
63492.88952	   4.00000	   0.02528	   1.51525	   0.30237	   1.54513	 -11.28518
63547.95453	   4.00000	   0.01999	   1.55309	   0.33914	   1.58969	 -12.31806
78893.02444	   5.00000	20004.45300	   0.41130	  -0.02754	   0.41222	   3.83086
78893.16744	   5.00000	15829.12600	   0.41535	  -0.00969	   0.41546	   1.33665
78893.30944	   5.00000	12516.70300	   0.42305	   0.00593	   0.42309	  -0.80247
78893.45144	   5.00000	9909.44240	   0.43035	   0.01747	   0.43070	  -2.32433
78893.61544	   5.00000	7835.48000	   0.43969	   0.02821	   0.44059	  -3.67138
78893.81644	   5.00000	6217.24610	   0.44791	   0.03887	   0.44959	  -4.95976
78894.05444	   5.00000	4905.29100	   0.45522	   0.04723	   0.45766	  -5.92318
78894.29244	   5.00000	3881.27370	   0.46687	   0.05470	   0.47006	  -6.68229
78894.53044	   5.00000	3070.98270	   0.47543	   0.06261	   0.47953	  -7.50203
78894.76844	   5.00000	2430.77780	   0.48485	   0.06927	   0.48977	  -8.13113
78895.00644	   5.00000	1923.15370	   0.49867	   0.07726	   0.50461	  -8.80682
78895.24444	   5.00000	1522.43580	   0.51059	   0.08320	   0.51733	  -9.25490
78895.48244	   5.00000	1203.84460	   0.52193	   0.09065	   0.52974	  -9.85303
78895.72144	   5.00000	 952.86591	   0.53812	   0.09744	   0.54688	 -10.26402
